!Mini-Circuits Laboratory
!S-Parameters
!Model:HFCN-1000+
!Run/Lot/Date Code: CS0100//N/A
!DATA FOR: UNIT# 5
!Fixture/SN/Due: N/A
!Connection: PORT-1 - pin<1>; PORT-2 - pin<3>    
!PORT EXTENSION IS DONE ON TEST BOARD(TB-270) 
!Created: 02-25-2013 at 10:37 AM

# MHZ S DB R 50
!Frequency        S11 dB  S11 DEG   S21 dB  S21 DEG   S12 dB  S12 DEG   S22 dB  S22 DEG
  10.0000     -4.288849E-002 -1.608217E+000 -6.376956E+001 -3.514565E+001 -6.589462E+001  9.895764E+001 -4.392888E-002 -1.506845E+000
  20.0000     -4.753093E-002 -3.249722E+000 -7.663275E+001 -2.785054E+001 -7.402377E+001  9.778868E+001 -5.405388E-002 -3.171380E+000
  30.0000     -4.426434E-002 -4.879450E+000 -7.405759E+001  3.855545E+001 -8.375105E+001  7.989526E+001 -4.788480E-002 -4.750546E+000
  40.0000     -4.048989E-002 -6.501122E+000 -7.945468E+001  9.027267E+001 -8.046545E+001  9.947522E+001 -4.579259E-002 -6.334401E+000
  50.0000     -4.449731E-002 -8.125129E+000 -5.592416E+001  7.298427E+001 -6.140870E+001 -1.768917E+002 -6.739278E-002 -7.995164E+000
  60.0000     -4.103313E-002 -9.781141E+000 -7.298671E+001  6.847415E+001 -6.453542E+001  7.926723E+001 -4.474544E-002 -9.522085E+000
  70.0000     -3.933209E-002 -1.141399E+001 -7.064365E+001  9.447734E+001 -7.245896E+001  8.140060E+001 -4.200167E-002 -1.109739E+001
  80.0000     -3.846444E-002 -1.304576E+001 -7.107466E+001  7.466116E+001 -7.394279E+001  7.537550E+001 -4.029823E-002 -1.268331E+001
  90.0000     -3.927488E-002 -1.468498E+001 -7.191563E+001  7.025588E+001 -7.243010E+001  6.700063E+001 -3.836771E-002 -1.427123E+001
 100.0000     -3.915479E-002 -1.631179E+001 -7.025625E+001  7.793381E+001 -7.009341E+001  7.050444E+001 -3.900294E-002 -1.587016E+001
 110.0000     -3.943568E-002 -1.794785E+001 -6.925210E+001  6.123129E+001 -6.885504E+001  6.588905E+001 -3.978681E-002 -1.744877E+001
 120.0000     -4.110914E-002 -1.958681E+001 -6.781939E+001  6.581956E+001 -6.987852E+001  7.734148E+001 -4.223396E-002 -1.904555E+001
 130.0000     -4.296743E-002 -2.120951E+001 -6.794772E+001  7.808397E+001 -6.754649E+001  7.701128E+001 -4.280430E-002 -2.062992E+001
 140.0000     -4.399929E-002 -2.284182E+001 -6.694709E+001  6.802479E+001 -6.723812E+001  6.866269E+001 -4.306487E-002 -2.221345E+001
 150.0000     -4.642737E-002 -2.448314E+001 -6.414036E+001  6.989799E+001 -6.603704E+001  7.714379E+001 -4.589884E-002 -2.380897E+001
 160.0000     -4.543779E-002 -2.611904E+001 -6.598457E+001  6.374446E+001 -6.598000E+001  6.354101E+001 -4.330269E-002 -2.540575E+001
 170.0000     -4.641454E-002 -2.776193E+001 -6.553063E+001  6.524186E+001 -6.542756E+001  6.266764E+001 -4.241079E-002 -2.702042E+001
 180.0000     -4.717313E-002 -2.939206E+001 -6.562770E+001  6.334235E+001 -6.609626E+001  5.993932E+001 -4.479352E-002 -2.863093E+001
 190.0000     -5.040101E-002 -3.103833E+001 -6.523164E+001  6.581773E+001 -6.531859E+001  5.807120E+001 -4.683717E-002 -3.023525E+001
 200.0000     -5.416844E-002 -3.267513E+001 -6.561713E+001  6.444836E+001 -6.564226E+001  6.071058E+001 -4.721610E-002 -3.183824E+001
 210.0000     -5.514514E-002 -3.431234E+001 -6.424915E+001  5.616631E+001 -6.383400E+001  5.444299E+001 -4.543001E-002 -3.342367E+001
 220.0000     -5.972636E-002 -3.594221E+001 -6.381430E+001  5.174881E+001 -6.442323E+001  5.706969E+001 -4.968106E-002 -3.503138E+001
 230.0000     -5.996982E-002 -3.759595E+001 -6.414566E+001  5.425730E+001 -6.371948E+001  5.658485E+001 -4.980186E-002 -3.663892E+001
 240.0000     -6.145842E-002 -3.923537E+001 -6.334097E+001  4.991484E+001 -6.353308E+001  5.226194E+001 -5.200792E-002 -3.824762E+001
 250.0000     -6.713448E-002 -4.089499E+001 -6.378773E+001  5.869746E+001 -6.402850E+001  5.447190E+001 -5.605373E-002 -3.986705E+001
 260.0000     -7.099957E-002 -4.254271E+001 -6.346074E+001  4.124523E+001 -6.317289E+001  5.340685E+001 -5.791969E-002 -4.146705E+001
 270.0000     -7.615919E-002 -4.419373E+001 -6.267203E+001  4.945100E+001 -6.280750E+001  4.932885E+001 -6.050308E-002 -4.306928E+001
 280.0000     -7.622100E-002 -4.582808E+001 -6.253130E+001  4.456562E+001 -6.240454E+001  4.212725E+001 -6.266592E-002 -4.469452E+001
 290.0000     -7.941535E-002 -4.747651E+001 -6.173127E+001  4.439210E+001 -6.220037E+001  4.156161E+001 -6.438645E-002 -4.632162E+001
 300.0000     -8.121850E-002 -4.913128E+001 -6.343980E+001  4.155888E+001 -6.235011E+001  4.530413E+001 -6.530297E-002 -4.795821E+001
 310.0000     -8.828656E-002 -5.079265E+001 -6.280006E+001  3.865582E+001 -6.303837E+001  4.164120E+001 -7.237786E-002 -4.958205E+001
 320.0000     -8.959905E-002 -5.244986E+001 -6.248332E+001  3.641036E+001 -6.225047E+001  3.985793E+001 -7.501193E-002 -5.122202E+001
 330.0000     -9.442086E-002 -5.412523E+001 -6.263472E+001  3.690586E+001 -6.202478E+001  3.852683E+001 -7.789170E-002 -5.287671E+001
 340.0000     -9.808850E-002 -5.579625E+001 -6.181397E+001  3.935760E+001 -6.200784E+001  3.324331E+001 -8.220267E-002 -5.451876E+001
 350.0000     -1.065470E-001 -5.747043E+001 -6.204631E+001  3.769441E+001 -6.191405E+001  3.700843E+001 -8.422657E-002 -5.619077E+001
 360.0000     -1.080090E-001 -5.915005E+001 -6.218167E+001  3.418698E+001 -6.321076E+001  3.159169E+001 -8.631077E-002 -5.786789E+001
 370.0000     -1.107997E-001 -6.081115E+001 -6.219081E+001  2.981460E+001 -6.261791E+001  3.343351E+001 -9.128182E-002 -5.952437E+001
 380.0000     -1.132069E-001 -6.251332E+001 -6.263448E+001  3.294099E+001 -6.249842E+001  3.584344E+001 -9.548600E-002 -6.120361E+001
 390.0000     -1.179685E-001 -6.419033E+001 -6.276109E+001  3.100191E+001 -6.290550E+001  3.089013E+001 -9.824464E-002 -6.286934E+001
 400.0000     -1.234186E-001 -6.588938E+001 -6.310227E+001  3.045802E+001 -6.285781E+001  2.931026E+001 -1.023072E-001 -6.454192E+001
 410.0000     -1.308266E-001 -6.758253E+001 -6.382340E+001  2.817064E+001 -6.348857E+001  2.843699E+001 -1.079328E-001 -6.623372E+001
 420.0000     -1.364703E-001 -6.928495E+001 -6.419682E+001  2.630942E+001 -6.428634E+001  2.707765E+001 -1.129816E-001 -6.793559E+001
 430.0000     -1.431568E-001 -7.100854E+001 -6.494090E+001  2.731025E+001 -6.514121E+001  2.913857E+001 -1.161050E-001 -6.963662E+001
 440.0000     -1.459562E-001 -7.269552E+001 -6.609791E+001  2.933345E+001 -6.510175E+001  2.865663E+001 -1.223587E-001 -7.133883E+001
 450.0000     -1.524068E-001 -7.443832E+001 -6.740182E+001  3.138879E+001 -6.716021E+001  2.887471E+001 -1.288958E-001 -7.303688E+001
 460.0000     -1.577384E-001 -7.617615E+001 -6.830206E+001  3.344689E+001 -6.879876E+001  3.481219E+001 -1.356023E-001 -7.475082E+001
 470.0000     -1.652900E-001 -7.791315E+001 -7.152966E+001  5.726539E+001 -7.119205E+001  3.963581E+001 -1.398035E-001 -7.647598E+001
 480.0000     -1.724346E-001 -7.967380E+001 -7.359696E+001  6.533553E+001 -7.454558E+001  5.350439E+001 -1.464410E-001 -7.821718E+001
 490.0000     -1.778054E-001 -8.141303E+001 -7.514650E+001  1.033160E+002 -7.544323E+001  9.674974E+001 -1.522393E-001 -7.996204E+001
 500.0000     -1.872752E-001 -8.315456E+001 -7.166703E+001  1.481234E+002 -7.126630E+001  1.322970E+002 -1.573024E-001 -8.172931E+001
 510.0000     -1.947856E-001 -8.494520E+001 -6.757310E+001  1.504984E+002 -6.686189E+001  1.457979E+002 -1.672529E-001 -8.348118E+001
 520.0000     -1.969570E-001 -8.673074E+001 -6.394910E+001  1.601820E+002 -6.376691E+001  1.602294E+002 -1.714733E-001 -8.524887E+001
 530.0000     -2.061439E-001 -8.852702E+001 -6.122528E+001  1.631252E+002 -6.121675E+001  1.636914E+002 -1.780356E-001 -8.703350E+001
 540.0000     -2.161920E-001 -9.033496E+001 -5.912440E+001  1.644497E+002 -5.856116E+001  1.646797E+002 -1.817779E-001 -8.883576E+001
 550.0000     -2.213499E-001 -9.215161E+001 -5.662971E+001  1.626619E+002 -5.672278E+001  1.642392E+002 -1.914773E-001 -9.064754E+001
 560.0000     -2.297242E-001 -9.398974E+001 -5.486098E+001  1.629293E+002 -5.441652E+001  1.618934E+002 -2.011881E-001 -9.246367E+001
 570.0000     -2.381517E-001 -9.581120E+001 -5.278265E+001  1.610291E+002 -5.275950E+001  1.617454E+002 -2.074910E-001 -9.430729E+001
 580.0000     -2.450639E-001 -9.769474E+001 -5.131090E+001  1.614999E+002 -5.124216E+001  1.604803E+002 -2.158190E-001 -9.615108E+001
 590.0000     -2.515248E-001 -9.957983E+001 -4.950333E+001  1.598411E+002 -4.947607E+001  1.590027E+002 -2.248534E-001 -9.797915E+001
 600.0000     -2.650368E-001 -1.014525E+002 -4.805934E+001  1.576445E+002 -4.798208E+001  1.578457E+002 -2.334619E-001 -9.984719E+001
 610.0000     -2.696219E-001 -1.033541E+002 -4.662260E+001  1.568781E+002 -4.655525E+001  1.565243E+002 -2.415958E-001 -1.017514E+002
 620.0000     -2.816637E-001 -1.053003E+002 -4.521554E+001  1.552748E+002 -4.521633E+001  1.552701E+002 -2.489744E-001 -1.036657E+002
 630.0000     -2.937217E-001 -1.072719E+002 -4.387299E+001  1.531031E+002 -4.389413E+001  1.525640E+002 -2.638288E-001 -1.056100E+002
 640.0000     -3.071435E-001 -1.092583E+002 -4.259546E+001  1.516550E+002 -4.260455E+001  1.512291E+002 -2.752303E-001 -1.075529E+002
 650.0000     -3.163879E-001 -1.112682E+002 -4.136119E+001  1.498820E+002 -4.132077E+001  1.495657E+002 -2.854868E-001 -1.095283E+002
 660.0000     -3.278107E-001 -1.132561E+002 -4.005746E+001  1.481572E+002 -4.008492E+001  1.481265E+002 -2.994237E-001 -1.115196E+002
 670.0000     -3.389861E-001 -1.153438E+002 -3.885215E+001  1.460424E+002 -3.885263E+001  1.460167E+002 -3.061485E-001 -1.135476E+002
 680.0000     -3.553959E-001 -1.174213E+002 -3.765605E+001  1.441699E+002 -3.765040E+001  1.439700E+002 -3.169144E-001 -1.156001E+002
 690.0000     -3.676049E-001 -1.195171E+002 -3.649508E+001  1.422318E+002 -3.649395E+001  1.418721E+002 -3.321740E-001 -1.176664E+002
 700.0000     -3.802951E-001 -1.216719E+002 -3.534462E+001  1.400495E+002 -3.533863E+001  1.398036E+002 -3.463292E-001 -1.197774E+002
 710.0000     -3.946587E-001 -1.238353E+002 -3.422215E+001  1.379273E+002 -3.420368E+001  1.377435E+002 -3.587936E-001 -1.219056E+002
 720.0000     -4.053493E-001 -1.260608E+002 -3.309399E+001  1.357188E+002 -3.310204E+001  1.356069E+002 -3.715138E-001 -1.240844E+002
 730.0000     -4.249811E-001 -1.283577E+002 -3.199310E+001  1.336282E+002 -3.196181E+001  1.334203E+002 -3.821279E-001 -1.262890E+002
 740.0000     -4.360420E-001 -1.306641E+002 -3.088864E+001  1.312640E+002 -3.086474E+001  1.312401E+002 -3.982456E-001 -1.285142E+002
 750.0000     -4.548486E-001 -1.330149E+002 -2.979656E+001  1.290320E+002 -2.979504E+001  1.288866E+002 -4.168827E-001 -1.308441E+002
 760.0000     -4.745288E-001 -1.354181E+002 -2.872612E+001  1.266136E+002 -2.871542E+001  1.265143E+002 -4.355812E-001 -1.331953E+002
 770.0000     -4.903400E-001 -1.378851E+002 -2.764446E+001  1.241852E+002 -2.765126E+001  1.240990E+002 -4.507525E-001 -1.355658E+002
 780.0000     -5.139002E-001 -1.403862E+002 -2.659211E+001  1.217300E+002 -2.658677E+001  1.216698E+002 -4.728912E-001 -1.380034E+002
 790.0000     -5.397570E-001 -1.429866E+002 -2.553915E+001  1.191854E+002 -2.553629E+001  1.191270E+002 -4.945087E-001 -1.405141E+002
 800.0000     -5.645287E-001 -1.456648E+002 -2.448518E+001  1.165058E+002 -2.446789E+001  1.164828E+002 -5.161434E-001 -1.430909E+002
 810.0000     -5.895174E-001 -1.484140E+002 -2.342621E+001  1.137665E+002 -2.342820E+001  1.137255E+002 -5.429587E-001 -1.457383E+002
 820.0000     -6.228364E-001 -1.512779E+002 -2.237867E+001  1.109764E+002 -2.238084E+001  1.109301E+002 -5.753488E-001 -1.484614E+002
 830.0000     -6.600543E-001 -1.541900E+002 -2.134765E+001  1.080773E+002 -2.134169E+001  1.080070E+002 -6.093208E-001 -1.512785E+002
 840.0000     -6.970201E-001 -1.572364E+002 -2.030975E+001  1.050145E+002 -2.030450E+001  1.049699E+002 -6.491526E-001 -1.542035E+002
 850.0000     -7.465261E-001 -1.604027E+002 -1.927925E+001  1.018904E+002 -1.927707E+001  1.018445E+002 -6.911825E-001 -1.572332E+002
 860.0000     -7.952160E-001 -1.637188E+002 -1.824333E+001  9.857648E+001 -1.823637E+001  9.855895E+001 -7.402462E-001 -1.603917E+002
 870.0000     -8.563907E-001 -1.671673E+002 -1.721416E+001  9.513598E+001 -1.721277E+001  9.513065E+001 -7.977155E-001 -1.636236E+002
 880.0000     -9.215733E-001 -1.707793E+002 -1.618521E+001  9.154541E+001 -1.618181E+001  9.150087E+001 -8.674436E-001 -1.670471E+002
 890.0000     -1.008211E+000 -1.745371E+002 -1.516549E+001  8.780999E+001 -1.516230E+001  8.778136E+001 -9.442816E-001 -1.705909E+002
 900.0000     -1.100828E+000 -1.785330E+002 -1.414428E+001  8.383452E+001 -1.414641E+001  8.379040E+001 -1.036932E+000 -1.743050E+002
 910.0000     -1.208594E+000  1.772843E+002 -1.312659E+001  7.965598E+001 -1.312787E+001  7.964877E+001 -1.139537E+000 -1.782185E+002
 920.0000     -1.351707E+000  1.728737E+002 -1.212700E+001  7.528859E+001 -1.212878E+001  7.527757E+001 -1.269048E+000  1.777089E+002
 930.0000     -1.516753E+000  1.681809E+002 -1.114316E+001  7.063509E+001 -1.113818E+001  7.059884E+001 -1.425008E+000  1.733860E+002
 940.0000     -1.711721E+000  1.632610E+002 -1.016349E+001  6.569913E+001 -1.016225E+001  6.567202E+001 -1.613281E+000  1.688232E+002
 950.0000     -1.951633E+000  1.580031E+002 -9.212062E+000  6.046248E+001 -9.212485E+000  6.041681E+001 -1.841454E+000  1.640037E+002
 960.0000     -2.241028E+000  1.524721E+002 -8.285289E+000  5.494152E+001 -8.283030E+000  5.494574E+001 -2.117394E+000  1.589794E+002
 970.0000     -2.590962E+000  1.466675E+002 -7.388643E+000  4.915097E+001 -7.391180E+000  4.913300E+001 -2.453989E+000  1.537180E+002
 980.0000     -3.016691E+000  1.405532E+002 -6.542871E+000  4.307978E+001 -6.545856E+000  4.305886E+001 -2.862141E+000  1.482117E+002
 990.0000     -3.528078E+000  1.341131E+002 -5.746899E+000  3.671262E+001 -5.743549E+000  3.666613E+001 -3.354325E+000  1.425374E+002
1000.0000     -4.142030E+000  1.274303E+002 -5.011495E+000  3.009774E+001 -5.009434E+000  3.006084E+001 -3.941741E+000  1.367161E+002
1010.0000     -4.873006E+000  1.205658E+002 -4.334029E+000  2.329769E+001 -4.339790E+000  2.327357E+001 -4.635993E+000  1.308578E+002
1020.0000     -5.732303E+000  1.135433E+002 -3.733855E+000  1.636784E+001 -3.738786E+000  1.636408E+001 -5.459527E+000  1.250391E+002
1030.0000     -6.737266E+000  1.064233E+002 -3.209925E+000  9.380342E+000 -3.207023E+000  9.360939E+000 -6.412752E+000  1.193736E+002
1040.0000     -7.907786E+000  9.929226E+001 -2.757962E+000  2.436339E+000 -2.755532E+000  2.418309E+000 -7.512690E+000  1.140308E+002
1050.0000     -9.256330E+000  9.219476E+001 -2.376805E+000 -4.455997E+000 -2.378626E+000 -4.468383E+000 -8.761601E+000  1.091285E+002
1060.0000     -1.080767E+001  8.521117E+001 -2.063531E+000 -1.116221E+001 -2.065592E+000 -1.118899E+001 -1.017808E+001  1.049476E+002
1070.0000     -1.259860E+001  7.830196E+001 -1.813828E+000 -1.766779E+001 -1.812133E+000 -1.768522E+001 -1.176482E+001  1.016676E+002
1080.0000     -1.468279E+001  7.145061E+001 -1.611911E+000 -2.392636E+001 -1.613618E+000 -2.394509E+001 -1.352049E+001  9.957622E+001
1090.0000     -1.716763E+001  6.448558E+001 -1.451145E+000 -2.990960E+001 -1.452924E+000 -2.994795E+001 -1.547742E+001  9.940650E+001
1100.0000     -2.025108E+001  5.726970E+001 -1.327776E+000 -3.561820E+001 -1.329196E+000 -3.565105E+001 -1.757311E+001  1.017616E+002
1110.0000     -2.431730E+001  4.872932E+001 -1.235498E+000 -4.108038E+001 -1.235780E+000 -4.107184E+001 -1.973448E+001  1.078342E+002
1120.0000     -3.064574E+001  3.451873E+001 -1.161135E+000 -4.622706E+001 -1.160515E+000 -4.626584E+001 -2.163054E+001  1.184101E+002
1130.0000     -4.085752E+001 -3.985194E+001 -1.104116E+000 -5.114030E+001 -1.103717E+000 -5.116853E+001 -2.285837E+001  1.329756E+002
1140.0000     -3.206974E+001 -1.160223E+002 -1.059559E+000 -5.586117E+001 -1.058000E+000 -5.586142E+001 -2.304066E+001  1.481723E+002
1150.0000     -2.708150E+001 -1.301302E+002 -1.022531E+000 -6.031572E+001 -1.022816E+000 -6.034494E+001 -2.244813E+001  1.592446E+002
1160.0000     -2.433627E+001 -1.371381E+002 -9.930552E-001 -6.459402E+001 -9.934338E-001 -6.460168E+001 -2.166251E+001  1.665204E+002
1170.0000     -2.260480E+001 -1.428013E+002 -9.664760E-001 -6.868041E+001 -9.686165E-001 -6.870247E+001 -2.088213E+001  1.705453E+002
1180.0000     -2.142816E+001 -1.475405E+002 -9.442607E-001 -7.261353E+001 -9.430909E-001 -7.264117E+001 -2.025055E+001  1.722835E+002
1190.0000     -2.058599E+001 -1.518783E+002 -9.250085E-001 -7.641679E+001 -9.233686E-001 -7.643076E+001 -1.976938E+001  1.728138E+002
1200.0000     -2.005367E+001 -1.555501E+002 -9.055397E-001 -8.003550E+001 -9.037607E-001 -8.007314E+001 -1.943269E+001  1.722933E+002
1210.0000     -1.968016E+001 -1.592327E+002 -8.862442E-001 -8.357375E+001 -8.844540E-001 -8.358340E+001 -1.920923E+001  1.711819E+002
1220.0000     -1.946050E+001 -1.626458E+002 -8.685353E-001 -8.698045E+001 -8.675495E-001 -8.699845E+001 -1.908793E+001  1.700010E+002
1230.0000     -1.937758E+001 -1.659230E+002 -8.482538E-001 -9.028320E+001 -8.466086E-001 -9.028810E+001 -1.906444E+001  1.683644E+002
1240.0000     -1.942073E+001 -1.691239E+002 -8.289464E-001 -9.348257E+001 -8.291841E-001 -9.350343E+001 -1.915892E+001  1.666609E+002
1250.0000     -1.955270E+001 -1.721083E+002 -8.092236E-001 -9.661413E+001 -8.092654E-001 -9.662872E+001 -1.929655E+001  1.647014E+002
1260.0000     -1.974969E+001 -1.747792E+002 -7.950915E-001 -9.965160E+001 -7.914359E-001 -9.967345E+001 -1.957251E+001  1.628190E+002
1270.0000     -2.007393E+001 -1.772281E+002 -7.737408E-001 -1.026002E+002 -7.722832E-001 -1.026273E+002 -1.987569E+001  1.609239E+002
1280.0000     -2.043561E+001 -1.798418E+002 -7.580295E-001 -1.055005E+002 -7.570450E-001 -1.055124E+002 -2.030895E+001  1.590779E+002
1290.0000     -2.090334E+001  1.779168E+002 -7.367078E-001 -1.083137E+002 -7.393649E-001 -1.083427E+002 -2.081973E+001  1.572188E+002
1300.0000     -2.144060E+001  1.758683E+002 -7.219612E-001 -1.110745E+002 -7.211099E-001 -1.110912E+002 -2.140205E+001  1.553604E+002
1310.0000     -2.210340E+001  1.739244E+002 -7.052943E-001 -1.137816E+002 -7.040920E-001 -1.137790E+002 -2.205445E+001  1.536503E+002
1320.0000     -2.284887E+001  1.727604E+002 -6.888176E-001 -1.163952E+002 -6.868200E-001 -1.164368E+002 -2.284493E+001  1.517257E+002
1330.0000     -2.368366E+001  1.714150E+002 -6.722918E-001 -1.189892E+002 -6.730906E-001 -1.189981E+002 -2.372057E+001  1.503133E+002
1340.0000     -2.471576E+001  1.707494E+002 -6.578876E-001 -1.215224E+002 -6.583007E-001 -1.215410E+002 -2.478249E+001  1.490014E+002
1350.0000     -2.591746E+001  1.705778E+002 -6.458624E-001 -1.240071E+002 -6.447437E-001 -1.240162E+002 -2.595113E+001  1.478793E+002
1360.0000     -2.721974E+001  1.714919E+002 -6.317461E-001 -1.264373E+002 -6.307594E-001 -1.264391E+002 -2.742412E+001  1.469864E+002
1370.0000     -2.883276E+001  1.731721E+002 -6.184461E-001 -1.288078E+002 -6.171388E-001 -1.288277E+002 -2.928594E+001  1.467028E+002
1380.0000     -3.083653E+001  1.781166E+002 -6.095406E-001 -1.311550E+002 -6.079440E-001 -1.311599E+002 -3.153012E+001  1.474097E+002
1390.0000     -3.304687E+001 -1.725752E+002 -5.971473E-001 -1.334373E+002 -5.975586E-001 -1.334602E+002 -3.468336E+001  1.527029E+002
1400.0000     -3.522515E+001 -1.555662E+002 -5.852665E-001 -1.356872E+002 -5.879729E-001 -1.357072E+002 -3.884328E+001  1.664565E+002
1410.0000     -3.627615E+001 -1.293040E+002 -5.787730E-001 -1.378943E+002 -5.793567E-001 -1.378985E+002 -4.324242E+001 -1.468095E+002
1420.0000     -3.525835E+001 -1.031108E+002 -5.728695E-001 -1.400422E+002 -5.703258E-001 -1.400726E+002 -4.005585E+001 -9.637222E+001
1430.0000     -3.291702E+001 -8.679583E+001 -5.644084E-001 -1.421808E+002 -5.635434E-001 -1.421908E+002 -3.533578E+001 -8.068483E+001
1440.0000     -3.071441E+001 -7.829774E+001 -5.551420E-001 -1.442631E+002 -5.580965E-001 -1.442705E+002 -3.208871E+001 -7.508854E+001
1450.0000     -2.883340E+001 -7.318565E+001 -5.526510E-001 -1.463123E+002 -5.509290E-001 -1.463283E+002 -2.974614E+001 -7.315185E+001
