!Mini-Circuits Laboratory
!S-Parameters
!Model:HFCN-1000+
!Run/Lot/Date Code: CS0100//N/A
!DATA FOR: UNIT# 4
!Fixture/SN/Due: N/A
!Connection: PORT-1 - pin<1>; PORT-2 - pin<3>    
!PORT EXTENSION IS DONE ON TEST BOARD(TB-270) 
!Created: 02-25-2013 at 10:37 AM

# MHZ S DB R 50
!Frequency        S11 dB  S11 DEG   S21 dB  S21 DEG   S12 dB  S12 DEG   S22 dB  S22 DEG
  10.0000     -4.764566E-002 -1.610743E+000 -6.414137E+001 -8.224039E+001 -6.343588E+001  1.411173E+002 -4.764370E-002 -1.506300E+000
  20.0000     -4.666181E-002 -3.221129E+000 -7.216158E+001  1.147364E+000 -9.022122E+001 -1.301602E+002 -5.428109E-002 -3.167186E+000
  30.0000     -4.382439E-002 -4.841347E+000 -8.273880E+001  1.088655E+002 -8.746017E+001  9.615362E+001 -4.823397E-002 -4.753968E+000
  40.0000     -4.065744E-002 -6.440504E+000 -7.638840E+001  5.207811E+001 -7.795708E+001  7.360239E+001 -4.584704E-002 -6.336485E+000
  50.0000     -3.979893E-002 -8.063057E+000 -5.623307E+001  3.775199E+001 -6.257149E+001 -9.821474E+001 -5.596294E-002 -8.047457E+000
  60.0000     -4.282264E-002 -9.715370E+000 -7.501215E+001  8.137585E+001 -6.842882E+001  1.222589E+002 -4.601851E-002 -9.532405E+000
  70.0000     -3.884916E-002 -1.131740E+001 -7.159542E+001  7.772743E+001 -7.333780E+001  9.262844E+001 -4.223986E-002 -1.109927E+001
  80.0000     -3.839026E-002 -1.293363E+001 -7.058464E+001  8.255694E+001 -7.209081E+001  7.301215E+001 -4.086218E-002 -1.268365E+001
  90.0000     -3.864653E-002 -1.454499E+001 -6.952706E+001  9.120109E+001 -7.119681E+001  6.494896E+001 -3.841641E-002 -1.426550E+001
 100.0000     -3.844567E-002 -1.617034E+001 -6.951209E+001  7.949036E+001 -7.065624E+001  6.927328E+001 -3.914840E-002 -1.586538E+001
 110.0000     -3.800234E-002 -1.779478E+001 -7.073798E+001  6.807146E+001 -6.857787E+001  7.625031E+001 -4.028305E-002 -1.744194E+001
 120.0000     -3.883863E-002 -1.941531E+001 -6.851773E+001  7.240085E+001 -6.976598E+001  7.445908E+001 -4.319534E-002 -1.903662E+001
 130.0000     -3.941407E-002 -2.102074E+001 -6.830568E+001  7.067358E+001 -6.767534E+001  6.966520E+001 -4.368526E-002 -2.061364E+001
 140.0000     -4.087990E-002 -2.264430E+001 -6.797007E+001  6.656281E+001 -6.739837E+001  6.886867E+001 -4.344359E-002 -2.220433E+001
 150.0000     -4.075770E-002 -2.427492E+001 -6.427090E+001  6.349172E+001 -6.749600E+001  8.253498E+001 -4.407617E-002 -2.381023E+001
 160.0000     -4.055963E-002 -2.589915E+001 -6.701901E+001  6.314939E+001 -6.719571E+001  6.461013E+001 -4.417634E-002 -2.539952E+001
 170.0000     -4.205500E-002 -2.753308E+001 -6.608530E+001  5.962143E+001 -6.577610E+001  6.208810E+001 -4.537417E-002 -2.700447E+001
 180.0000     -4.373141E-002 -2.915268E+001 -6.534175E+001  6.354077E+001 -6.544354E+001  6.196069E+001 -4.683065E-002 -2.861479E+001
 190.0000     -4.439523E-002 -3.078589E+001 -6.544983E+001  6.198741E+001 -6.526164E+001  5.740142E+001 -4.811309E-002 -3.022207E+001
 200.0000     -4.684828E-002 -3.243108E+001 -6.513245E+001  6.536217E+001 -6.546414E+001  5.465117E+001 -4.893467E-002 -3.182311E+001
 210.0000     -4.900847E-002 -3.406402E+001 -6.489376E+001  5.681284E+001 -6.512447E+001  5.918346E+001 -4.989112E-002 -3.340109E+001
 220.0000     -4.986880E-002 -3.568002E+001 -6.435133E+001  5.120243E+001 -6.449421E+001  5.537825E+001 -5.435487E-002 -3.501674E+001
 230.0000     -5.076109E-002 -3.733080E+001 -6.386944E+001  5.346812E+001 -6.436834E+001  5.511352E+001 -5.440214E-002 -3.662831E+001
 240.0000     -5.325872E-002 -3.897287E+001 -6.439761E+001  5.214573E+001 -6.363600E+001  5.040336E+001 -5.726811E-002 -3.824495E+001
 250.0000     -5.789332E-002 -4.063879E+001 -6.319019E+001  5.985929E+001 -6.432766E+001  5.342509E+001 -6.076113E-002 -3.985612E+001
 260.0000     -6.225822E-002 -4.229916E+001 -6.354293E+001  4.808734E+001 -6.385429E+001  5.071901E+001 -6.423261E-002 -4.146366E+001
 270.0000     -6.502452E-002 -4.393003E+001 -6.398738E+001  4.787503E+001 -6.281480E+001  4.885179E+001 -6.695344E-002 -4.307690E+001
 280.0000     -6.883335E-002 -4.557511E+001 -6.298009E+001  4.315464E+001 -6.326414E+001  4.877230E+001 -6.942237E-002 -4.469044E+001
 290.0000     -7.073982E-002 -4.724247E+001 -6.313804E+001  5.007579E+001 -6.250026E+001  4.566726E+001 -7.293966E-002 -4.632331E+001
 300.0000     -7.109666E-002 -4.889408E+001 -6.356907E+001  4.467271E+001 -6.327019E+001  4.144053E+001 -7.439350E-002 -4.796019E+001
 310.0000     -7.661538E-002 -5.057792E+001 -6.276516E+001  4.330971E+001 -6.234813E+001  4.266314E+001 -8.152287E-002 -4.959761E+001
 320.0000     -7.799968E-002 -5.224309E+001 -6.335062E+001  4.346223E+001 -6.320720E+001  4.094814E+001 -8.466403E-002 -5.124079E+001
 330.0000     -8.185946E-002 -5.392276E+001 -6.279499E+001  3.988362E+001 -6.309433E+001  3.738785E+001 -8.838944E-002 -5.288524E+001
 340.0000     -8.675075E-002 -5.560743E+001 -6.350798E+001  3.594799E+001 -6.232872E+001  3.637393E+001 -9.216684E-002 -5.455355E+001
 350.0000     -9.285774E-002 -5.729077E+001 -6.214216E+001  3.920184E+001 -6.291333E+001  3.961754E+001 -9.702130E-002 -5.621500E+001
 360.0000     -9.622023E-002 -5.898972E+001 -6.307246E+001  3.309443E+001 -6.339269E+001  3.623003E+001 -9.842405E-002 -5.788829E+001
 370.0000     -9.688939E-002 -6.067659E+001 -6.235329E+001  3.150716E+001 -6.363280E+001  3.504795E+001 -1.043685E-001 -5.956362E+001
 380.0000     -1.004964E-001 -6.237732E+001 -6.380308E+001  3.404757E+001 -6.321250E+001  2.706879E+001 -1.094863E-001 -6.124425E+001
 390.0000     -1.083306E-001 -6.407873E+001 -6.315234E+001  2.998499E+001 -6.430829E+001  3.234607E+001 -1.142767E-001 -6.290812E+001
 400.0000     -1.131218E-001 -6.579694E+001 -6.431979E+001  3.159944E+001 -6.383399E+001  3.197073E+001 -1.184284E-001 -6.458794E+001
 410.0000     -1.205982E-001 -6.751694E+001 -6.458125E+001  3.501346E+001 -6.463338E+001  3.007418E+001 -1.226358E-001 -6.628191E+001
 420.0000     -1.245040E-001 -6.924994E+001 -6.574092E+001  3.130202E+001 -6.591209E+001  3.258466E+001 -1.294755E-001 -6.798743E+001
 430.0000     -1.308660E-001 -7.099170E+001 -6.656456E+001  2.649299E+001 -6.566355E+001  3.001064E+001 -1.342447E-001 -6.968636E+001
 440.0000     -1.338473E-001 -7.270879E+001 -6.777952E+001  3.066228E+001 -6.705851E+001  3.183773E+001 -1.419282E-001 -7.140064E+001
 450.0000     -1.421304E-001 -7.447328E+001 -6.878896E+001  4.069597E+001 -6.932160E+001  3.930428E+001 -1.484989E-001 -7.309367E+001
 460.0000     -1.467081E-001 -7.622197E+001 -7.093029E+001  4.380775E+001 -7.172568E+001  5.391582E+001 -1.552006E-001 -7.482310E+001
 470.0000     -1.526839E-001 -7.799979E+001 -7.491772E+001  6.952205E+001 -7.408807E+001  6.666061E+001 -1.613435E-001 -7.655342E+001
 480.0000     -1.599622E-001 -7.979194E+001 -7.849148E+001  1.087833E+002 -7.671743E+001  9.605600E+001 -1.651203E-001 -7.829417E+001
 490.0000     -1.672878E-001 -8.156020E+001 -7.106239E+001  1.385244E+002 -7.165003E+001  1.419461E+002 -1.730174E-001 -8.004663E+001
 500.0000     -1.741768E-001 -8.333458E+001 -6.766193E+001  1.628940E+002 -6.720464E+001  1.522691E+002 -1.794940E-001 -8.181757E+001
 510.0000     -1.821632E-001 -8.516926E+001 -6.372935E+001  1.582715E+002 -6.425475E+001  1.597934E+002 -1.881392E-001 -8.357853E+001
 520.0000     -1.867466E-001 -8.698302E+001 -6.113980E+001  1.640539E+002 -6.108118E+001  1.644415E+002 -1.938733E-001 -8.535049E+001
 530.0000     -1.971866E-001 -8.880932E+001 -5.895510E+001  1.654867E+002 -5.903806E+001  1.640219E+002 -2.016601E-001 -8.714883E+001
 540.0000     -2.035235E-001 -9.065821E+001 -5.691298E+001  1.620694E+002 -5.716032E+001  1.628791E+002 -2.069223E-001 -8.896445E+001
 550.0000     -2.124726E-001 -9.251141E+001 -5.474877E+001  1.650395E+002 -5.491982E+001  1.622307E+002 -2.159049E-001 -9.078131E+001
 560.0000     -2.184961E-001 -9.440406E+001 -5.304510E+001  1.621785E+002 -5.297763E+001  1.634284E+002 -2.264119E-001 -9.260305E+001
 570.0000     -2.306910E-001 -9.626100E+001 -5.128318E+001  1.624288E+002 -5.135849E+001  1.619717E+002 -2.347174E-001 -9.444539E+001
 580.0000     -2.374753E-001 -9.818797E+001 -4.965388E+001  1.607160E+002 -4.969880E+001  1.610353E+002 -2.434070E-001 -9.631492E+001
 590.0000     -2.439531E-001 -1.001300E+002 -4.818251E+001  1.596546E+002 -4.818640E+001  1.590707E+002 -2.520867E-001 -9.816350E+001
 600.0000     -2.579676E-001 -1.020496E+002 -4.676709E+001  1.580339E+002 -4.671194E+001  1.582478E+002 -2.602322E-001 -1.000414E+002
 610.0000     -2.637162E-001 -1.039942E+002 -4.543390E+001  1.565452E+002 -4.536649E+001  1.562535E+002 -2.711479E-001 -1.019649E+002
 620.0000     -2.775788E-001 -1.060026E+002 -4.401378E+001  1.546514E+002 -4.396796E+001  1.547189E+002 -2.805804E-001 -1.039154E+002
 630.0000     -2.891216E-001 -1.080109E+002 -4.268898E+001  1.530884E+002 -4.269351E+001  1.530885E+002 -2.936061E-001 -1.058804E+002
 640.0000     -3.039649E-001 -1.100587E+002 -4.142548E+001  1.511765E+002 -4.138479E+001  1.509903E+002 -3.071078E-001 -1.078447E+002
 650.0000     -3.127230E-001 -1.121296E+002 -4.016120E+001  1.494281E+002 -4.015394E+001  1.492038E+002 -3.177771E-001 -1.098575E+002
 660.0000     -3.265081E-001 -1.141764E+002 -3.894690E+001  1.473635E+002 -3.895583E+001  1.473247E+002 -3.322901E-001 -1.118878E+002
 670.0000     -3.390434E-001 -1.163193E+002 -3.774199E+001  1.454925E+002 -3.771104E+001  1.454040E+002 -3.410672E-001 -1.139607E+002
 680.0000     -3.550075E-001 -1.184602E+002 -3.652967E+001  1.433232E+002 -3.650305E+001  1.431778E+002 -3.531099E-001 -1.160537E+002
 690.0000     -3.669664E-001 -1.206306E+002 -3.538790E+001  1.413113E+002 -3.536718E+001  1.411715E+002 -3.688470E-001 -1.181735E+002
 700.0000     -3.835342E-001 -1.228569E+002 -3.423235E+001  1.391997E+002 -3.422715E+001  1.390776E+002 -3.818942E-001 -1.203278E+002
 710.0000     -3.942427E-001 -1.251132E+002 -3.308767E+001  1.370568E+002 -3.307619E+001  1.369508E+002 -3.961262E-001 -1.225111E+002
 720.0000     -4.078512E-001 -1.273928E+002 -3.197372E+001  1.347674E+002 -3.195662E+001  1.346389E+002 -4.111648E-001 -1.247624E+002
 730.0000     -4.286563E-001 -1.297709E+002 -3.085374E+001  1.324967E+002 -3.083860E+001  1.324600E+002 -4.226061E-001 -1.270076E+002
 740.0000     -4.418608E-001 -1.321761E+002 -2.975558E+001  1.300979E+002 -2.973777E+001  1.300793E+002 -4.403389E-001 -1.293181E+002
 750.0000     -4.630897E-001 -1.346171E+002 -2.865672E+001  1.276974E+002 -2.865155E+001  1.276207E+002 -4.618333E-001 -1.317136E+002
 760.0000     -4.857270E-001 -1.371204E+002 -2.757224E+001  1.252097E+002 -2.755221E+001  1.251756E+002 -4.815396E-001 -1.341437E+002
 770.0000     -5.042347E-001 -1.396837E+002 -2.648331E+001  1.227702E+002 -2.647359E+001  1.226980E+002 -5.001945E-001 -1.366097E+002
 780.0000     -5.286648E-001 -1.423201E+002 -2.540874E+001  1.201542E+002 -2.539969E+001  1.201827E+002 -5.233126E-001 -1.391432E+002
 790.0000     -5.575508E-001 -1.450402E+002 -2.434417E+001  1.174927E+002 -2.432977E+001  1.174230E+002 -5.491760E-001 -1.417629E+002
 800.0000     -5.841832E-001 -1.478401E+002 -2.327324E+001  1.146695E+002 -2.326822E+001  1.146537E+002 -5.743145E-001 -1.444496E+002
 810.0000     -6.167701E-001 -1.507256E+002 -2.220489E+001  1.118056E+002 -2.220976E+001  1.117784E+002 -6.078097E-001 -1.472353E+002
 820.0000     -6.523752E-001 -1.537453E+002 -2.114916E+001  1.088220E+002 -2.114464E+001  1.087853E+002 -6.431776E-001 -1.501031E+002
 830.0000     -6.948557E-001 -1.568249E+002 -2.008715E+001  1.057631E+002 -2.008271E+001  1.057184E+002 -6.837951E-001 -1.530893E+002
 840.0000     -7.423868E-001 -1.600570E+002 -1.903139E+001  1.025084E+002 -1.903019E+001  1.024793E+002 -7.304299E-001 -1.561943E+002
 850.0000     -8.018277E-001 -1.634069E+002 -1.798335E+001  9.916225E+001 -1.797823E+001  9.912115E+001 -7.813708E-001 -1.594300E+002
 860.0000     -8.593327E-001 -1.669479E+002 -1.692613E+001  9.561867E+001 -1.692407E+001  9.559364E+001 -8.436491E-001 -1.628088E+002
 870.0000     -9.370342E-001 -1.706349E+002 -1.587943E+001  9.193369E+001 -1.587841E+001  9.189305E+001 -9.143859E-001 -1.663105E+002
 880.0000     -1.019033E+000 -1.745213E+002 -1.483176E+001  8.800815E+001 -1.482599E+001  8.799206E+001 -1.001491E+000 -1.700192E+002
 890.0000     -1.127614E+000 -1.785749E+002 -1.378950E+001  8.391523E+001 -1.378829E+001  8.389689E+001 -1.100026E+000 -1.738967E+002
 900.0000     -1.249952E+000  1.771105E+002 -1.275514E+001  7.958934E+001 -1.275834E+001  7.955643E+001 -1.221431E+000 -1.779711E+002
 910.0000     -1.392528E+000  1.725795E+002 -1.172398E+001  7.500130E+001 -1.172300E+001  7.496899E+001 -1.361386E+000  1.776974E+002
 920.0000     -1.580317E+000  1.677608E+002 -1.071260E+001  7.015556E+001 -1.071505E+001  7.015894E+001 -1.537003E+000  1.731738E+002
 930.0000     -1.800817E+000  1.626599E+002 -9.724127E+000  6.500182E+001 -9.721023E+000  6.496976E+001 -1.752226E+000  1.683749E+002
 940.0000     -2.069001E+000  1.572710E+002 -8.754796E+000  5.950681E+001 -8.748969E+000  5.949671E+001 -2.015135E+000  1.632809E+002
 950.0000     -2.398465E+000  1.515419E+002 -7.816890E+000  5.369958E+001 -7.815688E+000  5.366146E+001 -2.334628E+000  1.579061E+002
 960.0000     -2.798056E+000  1.455592E+002 -6.915009E+000  4.760009E+001 -6.915887E+000  4.759495E+001 -2.725404E+000  1.523031E+002
 970.0000     -3.290619E+000  1.392794E+002 -6.067317E+000  4.118922E+001 -6.070115E+000  4.117260E+001 -3.205116E+000  1.464702E+002
 980.0000     -3.880553E+000  1.327230E+002 -5.276271E+000  3.449756E+001 -5.278610E+000  3.448419E+001 -3.782450E+000  1.404112E+002
 990.0000     -4.595544E+000  1.259333E+002 -4.557327E+000  2.757651E+001 -4.554052E+000  2.753519E+001 -4.479868E+000  1.342591E+002
1000.0000     -5.447219E+000  1.190189E+002 -3.909161E+000  2.047366E+001 -3.910046E+000  2.044128E+001 -5.308702E+000  1.280556E+002
1010.0000     -6.459771E+000  1.120709E+002 -3.338027E+000  1.325163E+001 -3.342931E+000  1.324671E+001 -6.284473E+000  1.219590E+002
1020.0000     -7.643591E+000  1.051670E+002 -2.851210E+000  6.037860E+000 -2.854042E+000  6.044155E+000 -7.431864E+000  1.160958E+002
1030.0000     -9.026381E+000  9.840564E+001 -2.441770E+000 -1.103832E+000 -2.441067E+000 -1.105503E+000 -8.765524E+000  1.107007E+002
1040.0000     -1.065302E+001  9.194971E+001 -2.108821E+000 -8.069432E+000 -2.103623E+000 -8.084251E+000 -1.030019E+001  1.059169E+002
1050.0000     -1.253896E+001  8.589642E+001 -1.838576E+000 -1.484448E+001 -1.837818E+000 -1.486708E+001 -1.205019E+001  1.020460E+002
1060.0000     -1.476868E+001  8.040933E+001 -1.624721E+000 -2.136136E+001 -1.623925E+000 -2.137904E+001 -1.406133E+001  9.964462E+001
1070.0000     -1.747746E+001  7.578871E+001 -1.461776E+000 -2.758792E+001 -1.460122E+000 -2.759728E+001 -1.637203E+001  9.931807E+001
1080.0000     -2.092064E+001  7.273640E+001 -1.332925E+000 -3.352673E+001 -1.335640E+000 -3.352976E+001 -1.897204E+001  1.023150E+002
1090.0000     -2.579502E+001  7.354343E+001 -1.239369E+000 -3.913786E+001 -1.240421E+000 -3.915966E+001 -2.177674E+001  1.116545E+002
1100.0000     -3.388127E+001  9.480247E+001 -1.167709E+000 -4.448387E+001 -1.167587E+000 -4.450452E+001 -2.407916E+001  1.297247E+002
1110.0000     -3.418699E+001 -1.752155E+002 -1.111608E+000 -4.957384E+001 -1.113679E+000 -4.956909E+001 -2.467675E+001  1.531360E+002
1120.0000     -2.766126E+001 -1.551966E+002 -1.068946E+000 -5.436868E+001 -1.070627E+000 -5.439458E+001 -2.365482E+001  1.708529E+002
1130.0000     -2.423001E+001 -1.532137E+002 -1.038149E+000 -5.895591E+001 -1.037754E+000 -5.897730E+001 -2.222478E+001 -1.791886E+002
1140.0000     -2.212242E+001 -1.546247E+002 -1.011824E+000 -6.335304E+001 -1.010201E+000 -6.335435E+001 -2.090274E+001 -1.746336E+002
1150.0000     -2.069441E+001 -1.571634E+002 -9.867083E-001 -6.752957E+001 -9.879214E-001 -6.755701E+001 -1.990779E+001 -1.733275E+002
1160.0000     -1.971871E+001 -1.598780E+002 -9.674042E-001 -7.153699E+001 -9.688687E-001 -7.154708E+001 -1.915336E+001 -1.732947E+002
1170.0000     -1.903752E+001 -1.629996E+002 -9.481393E-001 -7.539984E+001 -9.489276E-001 -7.540701E+001 -1.859628E+001 -1.741385E+002
1180.0000     -1.857559E+001 -1.660734E+002 -9.312044E-001 -7.909880E+001 -9.297327E-001 -7.913123E+001 -1.823051E+001 -1.756918E+002
1190.0000     -1.825223E+001 -1.692253E+002 -9.102809E-001 -8.271723E+001 -9.109948E-001 -8.272243E+001 -1.799069E+001 -1.774272E+002
1200.0000     -1.810614E+001 -1.721359E+002 -8.948028E-001 -8.617078E+001 -8.932541E-001 -8.618943E+001 -1.788185E+001 -1.795231E+002
1210.0000     -1.804561E+001 -1.751117E+002 -8.748290E-001 -8.953118E+001 -8.745619E-001 -8.954455E+001 -1.786404E+001  1.782486E+002
1220.0000     -1.808407E+001 -1.780494E+002 -8.559512E-001 -9.279284E+001 -8.570609E-001 -9.281505E+001 -1.791031E+001  1.761921E+002
1230.0000     -1.821650E+001  1.790501E+002 -8.369375E-001 -9.596360E+001 -8.354940E-001 -9.597093E+001 -1.805013E+001  1.739616E+002
1240.0000     -1.844312E+001  1.761381E+002 -8.168571E-001 -9.904591E+001 -8.152131E-001 -9.906446E+001 -1.827767E+001  1.718714E+002
1250.0000     -1.873944E+001  1.733071E+002 -7.954807E-001 -1.020565E+002 -7.979206E-001 -1.020747E+002 -1.855541E+001  1.695346E+002
1260.0000     -1.909480E+001  1.707183E+002 -7.791289E-001 -1.049986E+002 -7.779645E-001 -1.050162E+002 -1.894780E+001  1.675769E+002
1270.0000     -1.956317E+001  1.682221E+002 -7.591630E-001 -1.078668E+002 -7.583755E-001 -1.078793E+002 -1.935013E+001  1.655837E+002
1280.0000     -2.006417E+001  1.656072E+002 -7.422805E-001 -1.106751E+002 -7.398575E-001 -1.106723E+002 -1.987901E+001  1.638586E+002
1290.0000     -2.067450E+001  1.632341E+002 -7.217913E-001 -1.134002E+002 -7.238663E-001 -1.134302E+002 -2.048787E+001  1.622031E+002
1300.0000     -2.135559E+001  1.609024E+002 -7.053108E-001 -1.160880E+002 -7.056351E-001 -1.161079E+002 -2.117268E+001  1.606128E+002
1310.0000     -2.217291E+001  1.585760E+002 -6.885054E-001 -1.187281E+002 -6.883261E-001 -1.187190E+002 -2.192021E+001  1.593258E+002
1320.0000     -2.309594E+001  1.568632E+002 -6.728017E-001 -1.212926E+002 -6.719608E-001 -1.213158E+002 -2.281858E+001  1.580364E+002
1330.0000     -2.414855E+001  1.548338E+002 -6.563003E-001 -1.238128E+002 -6.582050E-001 -1.238232E+002 -2.380009E+001  1.574175E+002
1340.0000     -2.544052E+001  1.533794E+002 -6.429739E-001 -1.262763E+002 -6.418127E-001 -1.263003E+002 -2.496233E+001  1.573363E+002
1350.0000     -2.698721E+001  1.519620E+002 -6.289750E-001 -1.287163E+002 -6.286572E-001 -1.287244E+002 -2.625442E+001  1.576665E+002
1360.0000     -2.876231E+001  1.514221E+002 -6.183380E-001 -1.310780E+002 -6.169589E-001 -1.311003E+002 -2.785729E+001  1.593125E+002
1370.0000     -3.109713E+001  1.511519E+002 -6.056259E-001 -1.334100E+002 -6.042985E-001 -1.334288E+002 -2.982746E+001  1.629607E+002
1380.0000     -3.447499E+001  1.540177E+002 -5.968369E-001 -1.357072E+002 -5.916623E-001 -1.357228E+002 -3.209703E+001  1.698324E+002
1390.0000     -3.943501E+001  1.650090E+002 -5.831516E-001 -1.379584E+002 -5.849422E-001 -1.379693E+002 -3.453968E+001 -1.743850E+002
1400.0000     -4.574392E+001 -1.413553E+002 -5.750168E-001 -1.401531E+002 -5.770845E-001 -1.401736E+002 -3.602484E+001 -1.491542E+002
1410.0000     -4.031027E+001 -7.940676E+001 -5.684381E-001 -1.423072E+002 -5.680749E-001 -1.423307E+002 -3.531342E+001 -1.199957E+002
1420.0000     -3.509824E+001 -6.522307E+001 -5.629767E-001 -1.444177E+002 -5.612828E-001 -1.444460E+002 -3.324735E+001 -1.010976E+002
1430.0000     -3.167111E+001 -6.233548E+001 -5.570417E-001 -1.465112E+002 -5.553844E-001 -1.465341E+002 -3.085316E+001 -9.128716E+001
1440.0000     -2.925048E+001 -6.189640E+001 -5.477113E-001 -1.485638E+002 -5.508444E-001 -1.485752E+002 -2.881824E+001 -8.606282E+001
1450.0000     -2.736018E+001 -6.186986E+001 -5.477450E-001 -1.505783E+002 -5.450819E-001 -1.505890E+002 -2.717194E+001 -8.336069E+001
