!Mini-Circuits Laboratory
!S-Parameters
!Model:HFCN-1000+
!Run/Lot/Date Code: CS0100//N/A
!DATA FOR: UNIT# 3
!Fixture/SN/Due: N/A
!Connection: PORT-1 - pin<1>; PORT-2 - pin<3>    
!PORT EXTENSION IS DONE ON TEST BOARD(TB-270) 
!Created: 02-25-2013 at 10:37 AM

# MHZ S DB R 50
!Frequency        S11 dB  S11 DEG   S21 dB  S21 DEG   S12 dB  S12 DEG   S22 dB  S22 DEG
  10.0000     -5.143686E-002 -1.583583E+000 -6.125049E+001 -1.775687E+002 -6.500837E+001  1.433912E+002 -4.577121E-002 -1.568761E+000
  20.0000     -4.631608E-002 -3.253424E+000 -7.359234E+001 -5.765037E+001 -7.987123E+001 -6.989619E+001 -5.133721E-002 -3.266614E+000
  30.0000     -4.382449E-002 -4.889980E+000 -8.533091E+001  2.283566E+001 -8.366905E+001  1.653478E+002 -4.796110E-002 -4.896299E+000
  40.0000     -4.075011E-002 -6.502453E+000 -7.700982E+001  9.329123E+001 -7.925753E+001  7.842139E+001 -4.496901E-002 -6.533247E+000
  50.0000     -3.812488E-002 -8.146950E+000 -5.636875E+001  2.692099E+001 -6.183040E+001 -2.626794E+001 -4.330214E-002 -8.238163E+000
  60.0000     -4.257842E-002 -9.801961E+000 -8.088679E+001  7.732626E+001 -7.238918E+001  1.719000E+002 -4.432363E-002 -9.826868E+000
  70.0000     -3.831077E-002 -1.141512E+001 -7.517960E+001  8.876320E+001 -7.345930E+001  8.088865E+001 -4.121780E-002 -1.143411E+001
  80.0000     -3.741624E-002 -1.305290E+001 -7.062383E+001  7.554423E+001 -7.052726E+001  6.960229E+001 -4.151060E-002 -1.307216E+001
  90.0000     -3.941420E-002 -1.467814E+001 -7.169223E+001  8.014323E+001 -6.903600E+001  7.648030E+001 -3.910341E-002 -1.469996E+001
 100.0000     -3.790008E-002 -1.631678E+001 -6.984985E+001  8.215976E+001 -6.866325E+001  7.282523E+001 -3.910647E-002 -1.635172E+001
 110.0000     -3.765062E-002 -1.794707E+001 -6.968494E+001  7.411858E+001 -6.831975E+001  7.325995E+001 -4.023577E-002 -1.798958E+001
 120.0000     -3.795139E-002 -1.959334E+001 -6.867790E+001  6.435733E+001 -6.919545E+001  6.943343E+001 -4.153007E-002 -1.962875E+001
 130.0000     -3.871685E-002 -2.121418E+001 -6.793868E+001  7.149049E+001 -6.787655E+001  6.605065E+001 -4.214894E-002 -2.125763E+001
 140.0000     -4.038432E-002 -2.284201E+001 -6.728091E+001  7.125397E+001 -6.799673E+001  6.728653E+001 -4.347539E-002 -2.289344E+001
 150.0000     -4.040399E-002 -2.449022E+001 -6.484285E+001  5.924360E+001 -7.055322E+001  6.606891E+001 -4.278357E-002 -2.453606E+001
 160.0000     -3.940202E-002 -2.613150E+001 -6.619631E+001  5.849036E+001 -6.619313E+001  6.472559E+001 -4.250450E-002 -2.617652E+001
 170.0000     -4.037489E-002 -2.776344E+001 -6.584232E+001  6.598084E+001 -6.640358E+001  6.218317E+001 -4.337927E-002 -2.784259E+001
 180.0000     -4.097390E-002 -2.940330E+001 -6.564542E+001  5.931704E+001 -6.543082E+001  5.984162E+001 -4.416225E-002 -2.949176E+001
 190.0000     -4.338842E-002 -3.104882E+001 -6.574075E+001  5.741945E+001 -6.527357E+001  6.052134E+001 -4.653094E-002 -3.114309E+001
 200.0000     -4.561049E-002 -3.269267E+001 -6.503387E+001  6.173862E+001 -6.541049E+001  5.022253E+001 -4.619736E-002 -3.279077E+001
 210.0000     -4.769576E-002 -3.432797E+001 -6.543850E+001  6.094434E+001 -6.478990E+001  5.954174E+001 -4.653909E-002 -3.441878E+001
 220.0000     -4.779512E-002 -3.596477E+001 -6.499386E+001  5.100333E+001 -6.423055E+001  5.871476E+001 -5.075387E-002 -3.607650E+001
 230.0000     -4.874462E-002 -3.761637E+001 -6.453224E+001  5.488508E+001 -6.340115E+001  5.228520E+001 -4.987603E-002 -3.773861E+001
 240.0000     -5.004928E-002 -3.926038E+001 -6.307024E+001  5.002509E+001 -6.422867E+001  4.992383E+001 -5.325451E-002 -3.938667E+001
 250.0000     -5.463258E-002 -4.092022E+001 -6.287509E+001  5.674804E+001 -6.452878E+001  4.919620E+001 -5.403922E-002 -4.104165E+001
 260.0000     -6.048273E-002 -4.257191E+001 -6.324390E+001  4.669986E+001 -6.332682E+001  4.572040E+001 -5.791694E-002 -4.269810E+001
 270.0000     -6.153063E-002 -4.422739E+001 -6.401013E+001  4.211205E+001 -6.380309E+001  5.120765E+001 -6.004690E-002 -4.434778E+001
 280.0000     -6.368824E-002 -4.587420E+001 -6.371279E+001  4.440881E+001 -6.312662E+001  4.497277E+001 -6.217589E-002 -4.600735E+001
 290.0000     -6.526668E-002 -4.753028E+001 -6.280696E+001  4.303354E+001 -6.375064E+001  4.088154E+001 -6.422413E-002 -4.768456E+001
 300.0000     -6.712648E-002 -4.918880E+001 -6.311275E+001  4.716254E+001 -6.293600E+001  3.967920E+001 -6.813588E-002 -4.935486E+001
 310.0000     -7.208724E-002 -5.087108E+001 -6.295514E+001  4.010644E+001 -6.294263E+001  4.370797E+001 -7.370837E-002 -5.103215E+001
 320.0000     -7.201912E-002 -5.253532E+001 -6.321645E+001  3.895839E+001 -6.275644E+001  3.922168E+001 -7.387340E-002 -5.270585E+001
 330.0000     -7.612719E-002 -5.421108E+001 -6.258050E+001  3.829535E+001 -6.294290E+001  3.754546E+001 -7.692825E-002 -5.440369E+001
 340.0000     -8.067274E-002 -5.587918E+001 -6.255980E+001  3.667937E+001 -6.316329E+001  3.834941E+001 -8.280046E-002 -5.608534E+001
 350.0000     -8.459253E-002 -5.756177E+001 -6.275344E+001  3.749834E+001 -6.322416E+001  3.132298E+001 -8.266413E-002 -5.780508E+001
 360.0000     -9.051761E-002 -5.925186E+001 -6.287705E+001  3.315354E+001 -6.312926E+001  3.489737E+001 -8.657076E-002 -5.951356E+001
 370.0000     -9.018801E-002 -6.093113E+001 -6.364090E+001  2.826664E+001 -6.290511E+001  3.234451E+001 -9.225266E-002 -6.122138E+001
 380.0000     -9.255848E-002 -6.264033E+001 -6.371618E+001  3.161481E+001 -6.399065E+001  3.331918E+001 -9.558594E-002 -6.293068E+001
 390.0000     -9.960810E-002 -6.433251E+001 -6.406476E+001  2.620426E+001 -6.368738E+001  3.358161E+001 -1.008691E-001 -6.464957E+001
 400.0000     -1.012946E-001 -6.604589E+001 -6.411544E+001  2.740044E+001 -6.389922E+001  3.300370E+001 -1.054262E-001 -6.636088E+001
 410.0000     -1.095291E-001 -6.774555E+001 -6.505527E+001  3.365257E+001 -6.474375E+001  3.289471E+001 -1.095050E-001 -6.809288E+001
 420.0000     -1.137063E-001 -6.947955E+001 -6.587785E+001  2.791147E+001 -6.536370E+001  2.342363E+001 -1.139818E-001 -6.983846E+001
 430.0000     -1.198919E-001 -7.120746E+001 -6.602180E+001  2.570593E+001 -6.675224E+001  2.936110E+001 -1.176733E-001 -7.156796E+001
 440.0000     -1.225799E-001 -7.290787E+001 -6.733668E+001  2.978459E+001 -6.717886E+001  3.381064E+001 -1.249331E-001 -7.332588E+001
 450.0000     -1.302560E-001 -7.466379E+001 -6.936580E+001  4.279596E+001 -6.800599E+001  3.716120E+001 -1.304958E-001 -7.505927E+001
 460.0000     -1.355592E-001 -7.641925E+001 -7.257103E+001  3.958410E+001 -7.259910E+001  4.128467E+001 -1.367532E-001 -7.681274E+001
 470.0000     -1.406747E-001 -7.815551E+001 -7.314407E+001  7.724821E+001 -7.419048E+001  6.982892E+001 -1.414417E-001 -7.858258E+001
 480.0000     -1.469952E-001 -7.994344E+001 -7.191514E+001  1.310361E+002 -7.595895E+001  1.337062E+002 -1.467131E-001 -8.036311E+001
 490.0000     -1.524480E-001 -8.170316E+001 -7.164220E+001  1.560360E+002 -7.061537E+001  1.437718E+002 -1.534028E-001 -8.214820E+001
 500.0000     -1.605728E-001 -8.346570E+001 -6.601402E+001  1.595263E+002 -6.604072E+001  1.552706E+002 -1.595332E-001 -8.395026E+001
 510.0000     -1.687056E-001 -8.527046E+001 -6.311335E+001  1.610961E+002 -6.224990E+001  1.618884E+002 -1.679236E-001 -8.572962E+001
 520.0000     -1.719149E-001 -8.709016E+001 -6.003967E+001  1.637591E+002 -6.011151E+001  1.638904E+002 -1.728818E-001 -8.755579E+001
 530.0000     -1.824843E-001 -8.890892E+001 -5.824939E+001  1.659646E+002 -5.811690E+001  1.646772E+002 -1.810435E-001 -8.939008E+001
 540.0000     -1.886481E-001 -9.073685E+001 -5.589533E+001  1.641475E+002 -5.590017E+001  1.644665E+002 -1.861186E-001 -9.122026E+001
 550.0000     -1.977731E-001 -9.259882E+001 -5.391172E+001  1.630754E+002 -5.396453E+001  1.640970E+002 -1.953843E-001 -9.309219E+001
 560.0000     -2.048964E-001 -9.444139E+001 -5.225969E+001  1.621753E+002 -5.222721E+001  1.626514E+002 -2.049274E-001 -9.494680E+001
 570.0000     -2.147129E-001 -9.628710E+001 -5.054465E+001  1.610757E+002 -5.053030E+001  1.610981E+002 -2.118782E-001 -9.683578E+001
 580.0000     -2.209613E-001 -9.820551E+001 -4.899286E+001  1.595796E+002 -4.903895E+001  1.596609E+002 -2.204511E-001 -9.872455E+001
 590.0000     -2.257364E-001 -1.001277E+002 -4.735484E+001  1.581768E+002 -4.755444E+001  1.589103E+002 -2.284649E-001 -1.006035E+002
 600.0000     -2.398451E-001 -1.020296E+002 -4.608690E+001  1.573430E+002 -4.605732E+001  1.572499E+002 -2.366159E-001 -1.025163E+002
 610.0000     -2.460558E-001 -1.039707E+002 -4.461044E+001  1.555319E+002 -4.469552E+001  1.556001E+002 -2.466518E-001 -1.044734E+002
 620.0000     -2.588217E-001 -1.059367E+002 -4.337787E+001  1.537293E+002 -4.335363E+001  1.539245E+002 -2.548438E-001 -1.064455E+002
 630.0000     -2.702590E-001 -1.079418E+002 -4.202883E+001  1.522430E+002 -4.205622E+001  1.517898E+002 -2.701355E-001 -1.084474E+002
 640.0000     -2.842799E-001 -1.099557E+002 -4.074434E+001  1.500323E+002 -4.071651E+001  1.502870E+002 -2.806681E-001 -1.104489E+002
 650.0000     -2.934653E-001 -1.120204E+002 -3.950205E+001  1.484541E+002 -3.948854E+001  1.483167E+002 -2.938859E-001 -1.124840E+002
 660.0000     -3.057062E-001 -1.140589E+002 -3.828148E+001  1.464441E+002 -3.824227E+001  1.462618E+002 -3.062216E-001 -1.145424E+002
 670.0000     -3.204447E-001 -1.161961E+002 -3.707622E+001  1.443504E+002 -3.707462E+001  1.443129E+002 -3.161268E-001 -1.166483E+002
 680.0000     -3.333645E-001 -1.183235E+002 -3.588186E+001  1.422347E+002 -3.587679E+001  1.421638E+002 -3.264369E-001 -1.187652E+002
 690.0000     -3.481781E-001 -1.204883E+002 -3.472617E+001  1.400699E+002 -3.472073E+001  1.401385E+002 -3.434199E-001 -1.209189E+002
 700.0000     -3.630202E-001 -1.227133E+002 -3.358742E+001  1.379138E+002 -3.356353E+001  1.378700E+002 -3.589405E-001 -1.231130E+002
 710.0000     -3.753422E-001 -1.249384E+002 -3.244540E+001  1.359349E+002 -3.242654E+001  1.357804E+002 -3.729305E-001 -1.253267E+002
 720.0000     -3.918441E-001 -1.272390E+002 -3.131308E+001  1.335237E+002 -3.129891E+001  1.334608E+002 -3.860230E-001 -1.276118E+002
 730.0000     -4.106618E-001 -1.295983E+002 -3.019973E+001  1.312168E+002 -3.018549E+001  1.311299E+002 -3.993234E-001 -1.299196E+002
 740.0000     -4.289457E-001 -1.320131E+002 -2.909972E+001  1.288584E+002 -2.908505E+001  1.288063E+002 -4.170683E-001 -1.322530E+002
 750.0000     -4.472922E-001 -1.344573E+002 -2.799507E+001  1.263785E+002 -2.799624E+001  1.263240E+002 -4.401527E-001 -1.346956E+002
 760.0000     -4.688470E-001 -1.369459E+002 -2.690998E+001  1.239057E+002 -2.690351E+001  1.237895E+002 -4.607640E-001 -1.371774E+002
 770.0000     -4.875155E-001 -1.395291E+002 -2.581789E+001  1.213316E+002 -2.581863E+001  1.212895E+002 -4.805640E-001 -1.396920E+002
 780.0000     -5.141151E-001 -1.421867E+002 -2.473776E+001  1.186738E+002 -2.473942E+001  1.186356E+002 -5.052550E-001 -1.422842E+002
 790.0000     -5.455800E-001 -1.449135E+002 -2.367289E+001  1.159381E+002 -2.366326E+001  1.159540E+002 -5.331807E-001 -1.449648E+002
 800.0000     -5.756488E-001 -1.477422E+002 -2.259023E+001  1.131176E+002 -2.258958E+001  1.130697E+002 -5.606701E-001 -1.477251E+002
 810.0000     -6.099352E-001 -1.506751E+002 -2.152656E+001  1.101539E+002 -2.152043E+001  1.101261E+002 -5.934495E-001 -1.505687E+002
 820.0000     -6.488002E-001 -1.537206E+002 -2.045687E+001  1.070969E+002 -2.045522E+001  1.070684E+002 -6.336010E-001 -1.535137E+002
 830.0000     -6.961919E-001 -1.568565E+002 -1.939554E+001  1.039857E+002 -1.938679E+001  1.039403E+002 -6.785665E-001 -1.565825E+002
 840.0000     -7.468832E-001 -1.601373E+002 -1.832849E+001  1.006469E+002 -1.832862E+001  1.006126E+002 -7.303485E-001 -1.597906E+002
 850.0000     -8.118001E-001 -1.635743E+002 -1.727196E+001  9.717731E+001 -1.726641E+001  9.712879E+001 -7.874755E-001 -1.631323E+002
 860.0000     -8.799879E-001 -1.671919E+002 -1.620999E+001  9.350422E+001 -1.620357E+001  9.350014E+001 -8.563521E-001 -1.666325E+002
 870.0000     -9.660274E-001 -1.709850E+002 -1.515083E+001  8.969855E+001 -1.514884E+001  8.963734E+001 -9.394361E-001 -1.702659E+002
 880.0000     -1.060431E+000 -1.749945E+002 -1.409645E+001  8.561454E+001 -1.409266E+001  8.557814E+001 -1.040564E+000 -1.741258E+002
 890.0000     -1.185572E+000 -1.791808E+002 -1.305338E+001  8.137302E+001 -1.305112E+001  8.135353E+001 -1.155943E+000 -1.781531E+002
 900.0000     -1.326304E+000  1.763352E+002 -1.201316E+001  7.683519E+001 -1.201317E+001  7.682256E+001 -1.294470E+000  1.775965E+002
 910.0000     -1.493108E+000  1.716338E+002 -1.097789E+001  7.203340E+001 -1.097853E+001  7.201714E+001 -1.461055E+000  1.730778E+002
 920.0000     -1.712068E+000  1.666272E+002 -9.968072E+000  6.696599E+001 -9.969018E+000  6.694959E+001 -1.665904E+000  1.683349E+002
 930.0000     -1.973239E+000  1.612994E+002 -8.981635E+000  6.155479E+001 -8.979546E+000  6.149738E+001 -1.920908E+000  1.633087E+002
 940.0000     -2.290898E+000  1.556735E+002 -8.020861E+000  5.577702E+001 -8.018814E+000  5.577045E+001 -2.231720E+000  1.579793E+002
 950.0000     -2.684338E+000  1.496893E+002 -7.101917E+000  4.966064E+001 -7.100119E+000  4.964085E+001 -2.611670E+000  1.523514E+002
 960.0000     -3.158844E+000  1.434352E+002 -6.221867E+000  4.325195E+001 -6.224568E+000  4.326826E+001 -3.078524E+000  1.465077E+002
 970.0000     -3.744896E+000  1.369282E+002 -5.405532E+000  3.654303E+001 -5.407172E+000  3.653998E+001 -3.647405E+000  1.404543E+002
 980.0000     -4.453074E+000  1.301849E+002 -4.659995E+000  2.959758E+001 -4.659409E+000  2.957882E+001 -4.337448E+000  1.342171E+002
 990.0000     -5.298211E+000  1.232443E+002 -3.986365E+000  2.242981E+001 -3.984056E+000  2.239433E+001 -5.167543E+000  1.279769E+002
1000.0000     -6.310018E+000  1.162678E+002 -3.394599E+000  1.514649E+001 -3.396188E+000  1.510802E+001 -6.152277E+000  1.217477E+002
1010.0000     -7.509401E+000  1.093542E+002 -2.884489E+000  7.803462E+000 -2.890185E+000  7.802629E+000 -7.307903E+000  1.157886E+002
1020.0000     -8.915625E+000  1.025965E+002 -2.459277E+000  5.444084E-001 -2.463128E+000  5.448413E-001 -8.667614E+000  1.102302E+002
1030.0000     -1.056865E+001  9.615896E+001 -2.113073E+000 -6.554809E+000 -2.110049E+000 -6.574538E+000 -1.024604E+001  1.053856E+002
1040.0000     -1.252064E+001  9.018501E+001 -1.835232E+000 -1.346031E+001 -1.830419E+000 -1.346305E+001 -1.207214E+001  1.014778E+002
1050.0000     -1.483876E+001  8.494301E+001 -1.613925E+000 -2.009916E+001 -1.615105E+000 -2.010667E+001 -1.417306E+001  9.902157E+001
1060.0000     -1.768689E+001  8.082293E+001 -1.449664E+000 -2.644021E+001 -1.447219E+000 -2.645642E+001 -1.661977E+001  9.904197E+001
1070.0000     -2.137518E+001  7.886066E+001 -1.320069E+000 -3.247258E+001 -1.320244E+000 -3.247957E+001 -1.942659E+001  1.031542E+002
1080.0000     -2.665601E+001  8.332686E+001 -1.223996E+000 -3.819057E+001 -1.226033E+000 -3.821326E+001 -2.238877E+001  1.143427E+002
1090.0000     -3.464221E+001  1.223692E+002 -1.153950E+000 -4.360583E+001 -1.155052E+000 -4.363935E+001 -2.453760E+001  1.365979E+002
1100.0000     -3.085204E+001 -1.653294E+002 -1.099254E+000 -4.876389E+001 -1.099486E+000 -4.877796E+001 -2.445055E+001  1.614947E+002
1110.0000     -2.577651E+001 -1.528843E+002 -1.059793E+000 -5.365479E+001 -1.060748E+000 -5.365277E+001 -2.292962E+001  1.776131E+002
1120.0000     -2.284257E+001 -1.516888E+002 -1.028440E+000 -5.828318E+001 -1.028520E+000 -5.830980E+001 -2.135134E+001 -1.747753E+002
1130.0000     -2.099667E+001 -1.531121E+002 -1.003817E+000 -6.269820E+001 -1.003726E+000 -6.272880E+001 -2.007697E+001 -1.714487E+002
1140.0000     -1.973613E+001 -1.556675E+002 -9.823454E-001 -6.695386E+001 -9.831465E-001 -6.695499E+001 -1.906334E+001 -1.706688E+002
1150.0000     -1.884063E+001 -1.586472E+002 -9.613156E-001 -7.098164E+001 -9.630210E-001 -7.101665E+001 -1.835551E+001 -1.714350E+002
1160.0000     -1.822134E+001 -1.615512E+002 -9.439541E-001 -7.487296E+001 -9.450400E-001 -7.489368E+001 -1.783035E+001 -1.726298E+002
1170.0000     -1.780892E+001 -1.647651E+002 -9.273611E-001 -7.862595E+001 -9.281496E-001 -7.864257E+001 -1.746329E+001 -1.742442E+002
1180.0000     -1.754543E+001 -1.678862E+002 -9.091290E-001 -8.224226E+001 -9.088936E-001 -8.226534E+001 -1.724833E+001 -1.762205E+002
1190.0000     -1.739097E+001 -1.710398E+002 -8.909170E-001 -8.573519E+001 -8.921943E-001 -8.575638E+001 -1.714136E+001 -1.781984E+002
1200.0000     -1.737893E+001 -1.740214E+002 -8.737785E-001 -8.911774E+001 -8.730983E-001 -8.914516E+001 -1.714154E+001  1.796069E+002
1210.0000     -1.743449E+001 -1.770785E+002 -8.552741E-001 -9.241418E+001 -8.533427E-001 -9.242179E+001 -1.721647E+001  1.773509E+002
1220.0000     -1.756865E+001  1.799252E+002 -8.347253E-001 -9.560762E+001 -8.372241E-001 -9.562278E+001 -1.735205E+001  1.753393E+002
1230.0000     -1.779865E+001  1.769576E+002 -8.152088E-001 -9.871339E+001 -8.146555E-001 -9.872311E+001 -1.756437E+001  1.732186E+002
1240.0000     -1.811460E+001  1.739343E+002 -7.981351E-001 -1.017325E+002 -7.938949E-001 -1.017520E+002 -1.786040E+001  1.713056E+002
1250.0000     -1.849252E+001  1.710256E+002 -7.743732E-001 -1.047087E+002 -7.740815E-001 -1.047154E+002 -1.820053E+001  1.692048E+002
1260.0000     -1.892543E+001  1.682896E+002 -7.566000E-001 -1.075891E+002 -7.556051E-001 -1.076132E+002 -1.864909E+001  1.675141E+002
1270.0000     -1.946901E+001  1.656409E+002 -7.367746E-001 -1.104104E+002 -7.366484E-001 -1.104316E+002 -1.911911E+001  1.658491E+002
1280.0000     -2.005373E+001  1.627809E+002 -7.199996E-001 -1.131842E+002 -7.185243E-001 -1.131899E+002 -1.969403E+001  1.645355E+002
1290.0000     -2.075209E+001  1.601567E+002 -6.992795E-001 -1.158785E+002 -7.020482E-001 -1.159069E+002 -2.036151E+001  1.634073E+002
1300.0000     -2.152396E+001  1.575230E+002 -6.821300E-001 -1.185436E+002 -6.827357E-001 -1.185401E+002 -2.108955E+001  1.625195E+002
1310.0000     -2.246594E+001  1.548437E+002 -6.659116E-001 -1.211184E+002 -6.660279E-001 -1.211335E+002 -2.188917E+001  1.619512E+002
1320.0000     -2.352614E+001  1.526390E+002 -6.499131E-001 -1.236579E+002 -6.486474E-001 -1.236863E+002 -2.283520E+001  1.616678E+002
1330.0000     -2.472618E+001  1.499603E+002 -6.341153E-001 -1.261642E+002 -6.357507E-001 -1.261700E+002 -2.384349E+001  1.622629E+002
1340.0000     -2.624326E+001  1.476537E+002 -6.223851E-001 -1.285989E+002 -6.211689E-001 -1.286203E+002 -2.502005E+001  1.638140E+002
1350.0000     -2.809157E+001  1.449276E+002 -6.061417E-001 -1.310139E+002 -6.098886E-001 -1.310089E+002 -2.629424E+001  1.662599E+002
1360.0000     -3.032884E+001  1.426548E+002 -5.963027E-001 -1.333558E+002 -5.962817E-001 -1.333728E+002 -2.777586E+001  1.708891E+002
1370.0000     -3.346244E+001  1.390054E+002 -5.856819E-001 -1.356707E+002 -5.855814E-001 -1.356763E+002 -2.942503E+001  1.786128E+002
1380.0000     -3.874320E+001  1.349472E+002 -5.764742E-001 -1.379484E+002 -5.754126E-001 -1.379444E+002 -3.093289E+001 -1.698705E+002
1390.0000     -5.228298E+001  1.167917E+002 -5.652677E-001 -1.401606E+002 -5.671503E-001 -1.401667E+002 -3.180312E+001 -1.527630E+002
1400.0000     -4.323778E+001 -3.803664E+001 -5.595212E-001 -1.423271E+002 -5.593761E-001 -1.423505E+002 -3.165338E+001 -1.348262E+002
1410.0000     -3.593822E+001 -4.384037E+001 -5.523514E-001 -1.444592E+002 -5.517814E-001 -1.444814E+002 -3.062497E+001 -1.187050E+002
1420.0000     -3.204193E+001 -4.628115E+001 -5.473792E-001 -1.465551E+002 -5.453874E-001 -1.465881E+002 -2.927790E+001 -1.077567E+002
1430.0000     -2.940668E+001 -4.916742E+001 -5.424789E-001 -1.486351E+002 -5.413153E-001 -1.486481E+002 -2.772852E+001 -1.009846E+002
1440.0000     -2.742398E+001 -5.163494E+001 -5.332128E-001 -1.506551E+002 -5.371597E-001 -1.506748E+002 -2.633397E+001 -9.658515E+001
1450.0000     -2.582009E+001 -5.352502E+001 -5.343353E-001 -1.526602E+002 -5.312781E-001 -1.526704E+002 -2.510292E+001 -9.391505E+001
