! Mini-Circuits								
! S2P DATA File Format								
! Type: BAND PASS FILTER								
! Model: SXBP-1430-75+								
! All S Parameters are in dB deg format								
! TEST CONDITIONS: INPUT POWER = 0 dBm @ Temperature = + 25 deg C					
! 401 Frequency points								
!								
# MHz S DB R 75								
!								
!FREQ   MAG(S11)PHS(S11)MAG(S21)PHS(S21)MAG(S12)PHS(S12)MAG(S22)PHS(S22)				
5.00	-0.02	-4.13	-50.32	85.66	-50.92	89.41	-0.01	-2.48
10.00	-0.02	-8.24	-44.89	82.08	-44.87	84.28	-0.01	-4.95
20.00	-0.02	-16.50	-39.08	77.58	-38.96	78.52	0.00	-9.96
30.00	-0.02	-24.70	-35.63	71.06	-35.51	71.36	0.00	-14.91
40.00	-0.04	-32.93	-33.23	64.95	-33.17	64.68	-0.01	-19.88
50.00	-0.04	-40.91	-31.38	58.69	-31.35	58.73	-0.01	-24.76
60.00	-0.06	-48.88	-29.99	52.76	-29.93	52.63	-0.01	-29.69
70.00	-0.07	-56.93	-28.83	46.28	-28.81	46.31	-0.02	-34.56
80.00	-0.08	-64.93	-27.88	40.18	-27.89	40.27	-0.02	-39.54
90.00	-0.09	-72.74	-27.13	34.22	-27.10	34.16	-0.02	-44.36
100.00	-0.13	-80.53	-26.51	28.21	-26.49	28.03	-0.03	-49.24
110.00	-0.13	-88.13	-25.99	22.23	-25.99	22.30	-0.03	-54.21
120.00	-0.16	-95.70	-25.59	16.51	-25.58	16.39	-0.03	-58.90
130.00	-0.18	-103.32	-25.30	10.52	-25.26	10.72	-0.04	-63.72
140.00	-0.19	-110.70	-25.03	4.83	-25.02	4.74	-0.04	-68.55
150.00	-0.22	-118.08	-24.86	-0.97	-24.89	-1.00	-0.05	-73.35
160.00	-0.24	-125.30	-24.75	-6.58	-24.78	-6.68	-0.04	-78.04
170.00	-0.27	-132.53	-24.79	-12.06	-24.78	-12.14	-0.05	-82.82
180.00	-0.30	-139.77	-24.82	-17.50	-24.79	-17.60	-0.08	-87.46
190.00	-0.30	-146.74	-24.94	-23.05	-24.88	-23.20	-0.08	-92.11
200.00	-0.33	-153.83	-25.08	-28.71	-25.06	-28.65	-0.07	-96.82
210.00	-0.37	-160.74	-25.30	-33.84	-25.31	-34.24	-0.09	-101.52
220.00	-0.38	-167.66	-25.64	-39.37	-25.63	-39.40	-0.09	-106.13
230.00	-0.38	-174.53	-26.02	-44.41	-26.06	-44.59	-0.09	-110.71
240.00	-0.40	178.50	-26.48	-49.51	-26.46	-49.67	-0.10	-115.19
250.00	-0.43	171.67	-27.00	-54.44	-27.02	-54.96	-0.10	-119.83
260.00	-0.45	164.84	-27.71	-59.65	-27.69	-60.11	-0.10	-124.44
270.00	-0.46	158.06	-28.46	-64.88	-28.54	-65.20	-0.11	-128.79
280.00	-0.48	151.17	-29.41	-69.54	-29.47	-69.73	-0.13	-133.30
290.00	-0.50	144.34	-30.48	-74.35	-30.52	-74.51	-0.13	-137.80
300.00	-0.54	137.30	-31.88	-78.86	-31.87	-79.16	-0.14	-142.27
310.00	-0.56	130.39	-33.52	-82.79	-33.54	-82.94	-0.14	-146.77
320.00	-0.57	123.38	-35.58	-86.77	-35.78	-86.69	-0.17	-151.30
330.00	-0.57	116.40	-38.53	-88.16	-38.67	-87.33	-0.18	-155.63
340.00	-0.59	109.31	-42.93	-86.59	-42.97	-85.75	-0.17	-159.99
350.00	-0.60	102.23	-49.63	-56.40	-50.00	-58.77	-0.17	-164.52
360.00	-0.61	95.00	-48.19	22.78	-48.35	24.71	-0.20	-168.93
370.00	-0.64	87.55	-41.83	40.78	-41.83	40.94	-0.22	-173.35
380.00	-0.65	80.18	-37.94	41.55	-38.01	40.73	-0.23	-177.73
390.00	-0.67	72.69	-35.51	38.92	-35.43	39.29	-0.23	177.80
400.00	-0.68	65.02	-33.57	35.13	-33.55	35.21	-0.25	173.37
410.00	-0.68	57.19	-32.23	31.04	-32.15	31.09	-0.27	169.08
420.00	-0.71	49.27	-31.11	26.02	-31.07	25.68	-0.27	164.66
430.00	-0.72	41.21	-30.25	20.47	-30.31	20.58	-0.28	160.15
440.00	-0.72	33.03	-29.75	15.27	-29.84	15.72	-0.31	155.56
450.00	-0.72	24.70	-29.51	10.05	-29.55	10.52	-0.31	151.06
460.00	-0.75	16.20	-29.48	4.51	-29.49	4.59	-0.31	146.38
470.00	-0.74	7.56	-29.77	-0.45	-29.83	-0.42	-0.32	141.83
480.00	-0.75	-1.18	-30.50	-5.66	-30.49	-5.69	-0.34	137.25
490.00	-0.76	-10.28	-31.76	-10.35	-31.77	-10.37	-0.37	132.65
500.00	-0.76	-19.40	-33.90	-13.75	-33.94	-13.02	-0.38	127.66
510.00	-0.77	-28.53	-37.96	-11.16	-38.12	-10.17	-0.38	122.85
520.00	-0.77	-37.96	-45.45	30.58	-45.74	34.61	-0.40	117.88
530.00	-0.79	-47.64	-38.54	107.92	-38.05	108.06	-0.41	112.82
540.00	-0.82	-57.39	-31.52	115.47	-31.32	115.24	-0.43	107.67
550.00	-0.85	-67.20	-27.13	112.57	-26.86	112.91	-0.46	102.32
560.00	-0.87	-77.08	-23.75	107.16	-23.49	107.42	-0.50	96.77
570.00	-0.85	-87.10	-21.00	101.63	-20.80	101.36	-0.53	90.95
575.00	-0.89	-91.94	-19.81	98.29	-19.60	97.75	-0.56	88.11
580.00	-0.95	-97.19	-18.66	94.64	-18.46	93.86	-0.59	85.11
590.00	-1.01	-107.51	-16.58	87.40	-16.43	86.73	-0.66	78.98
600.00	-1.10	-117.71	-14.75	79.83	-14.63	79.14	-0.74	72.75
610.00	-1.21	-128.05	-13.12	72.04	-12.99	71.43	-0.87	66.22
620.00	-1.36	-138.44	-11.67	64.11	-11.49	63.42	-1.00	59.28
630.00	-1.53	-148.83	-10.30	56.51	-10.14	55.14	-1.17	52.18
640.00	-1.76	-159.08	-9.00	48.29	-8.97	46.63	-1.40	44.85
650.00	-2.03	-169.48	-7.86	39.69	-7.90	38.25	-1.66	37.10
660.00	-2.34	-179.66	-6.83	30.71	-6.87	30.06	-1.97	29.37
670.00	-2.72	170.27	-5.95	22.21	-5.96	21.30	-2.35	21.26
680.00	-3.17	160.48	-5.14	13.74	-5.14	12.55	-2.78	12.79
690.00	-3.68	150.85	-4.42	5.17	-4.48	3.79	-3.30	4.38
700.00	-4.25	141.43	-3.74	-3.61	-3.88	-4.58	-3.89	-4.19
710.00	-4.87	132.73	-3.18	-12.30	-3.35	-12.79	-4.53	-13.16
720.00	-5.53	124.09	-2.72	-20.96	-2.84	-20.93	-5.25	-21.88
730.00	-6.25	116.17	-2.35	-29.09	-2.43	-29.30	-6.02	-30.95
740.00	-7.05	108.94	-2.01	-37.04	-2.12	-37.54	-6.84	-40.14
750.00	-7.84	101.82	-1.75	-44.83	-1.85	-45.15	-7.73	-49.44
760.00	-8.71	95.73	-1.51	-52.56	-1.65	-52.41	-8.65	-58.65
770.00	-9.54	90.16	-1.36	-59.95	-1.44	-59.53	-9.57	-68.37
780.00	-10.40	85.18	-1.22	-66.89	-1.28	-66.52	-10.51	-78.50
790.00	-11.28	81.07	-1.13	-73.73	-1.15	-73.27	-11.49	-88.49
800.00	-12.14	77.53	-1.03	-80.10	-1.05	-79.98	-12.41	-99.33
810.00	-12.96	74.70	-0.97	-86.46	-1.00	-86.20	-13.31	-110.54
820.00	-13.67	72.31	-0.93	-92.66	-0.95	-92.12	-14.09	-121.61
830.00	-14.35	70.33	-0.90	-98.59	-0.88	-98.06	-14.79	-133.63
840.00	-14.90	69.02	-0.87	-104.16	-0.85	-103.80	-15.39	-145.39
850.00	-15.37	67.99	-0.85	-109.55	-0.82	-109.39	-15.80	-156.98
860.00	-15.75	66.92	-0.83	-115.07	-0.81	-114.91	-16.08	-168.55
870.00	-16.05	65.53	-0.84	-120.20	-0.81	-120.09	-16.26	-179.06
880.00	-16.28	64.08	-0.85	-125.46	-0.78	-125.15	-16.34	170.85
890.00	-16.39	62.29	-0.85	-130.30	-0.80	-130.03	-16.36	161.27
900.00	-16.47	60.86	-0.82	-135.24	-0.75	-135.14	-16.29	152.48
910.00	-16.53	58.60	-0.82	-139.86	-0.74	-139.92	-16.21	144.63
920.00	-16.63	56.23	-0.83	-144.55	-0.74	-144.70	-16.14	137.38
930.00	-16.69	53.08	-0.82	-149.13	-0.75	-149.34	-16.05	130.80
940.00	-16.76	49.78	-0.81	-153.73	-0.76	-153.70	-16.01	124.57
950.00	-16.85	46.29	-0.84	-157.97	-0.73	-158.10	-15.93	118.84
960.00	-16.89	42.27	-0.82	-162.36	-0.73	-162.60	-15.89	113.38
970.00	-16.95	38.32	-0.80	-166.83	-0.71	-167.04	-15.86	108.32
980.00	-17.06	34.05	-0.79	-171.02	-0.70	-171.46	-15.85	103.80
990.00	-17.17	29.28	-0.79	-175.27	-0.71	-175.77	-15.88	99.26
1000.00	-17.26	24.34	-0.79	-179.59	-0.71	-179.88	-15.91	95.09
1010.00	-17.35	19.36	-0.79	176.36	-0.72	175.90	-15.97	91.07
1020.00	-17.43	14.53	-0.78	172.34	-0.69	171.83	-15.97	87.19
1030.00	-17.51	9.53	-0.75	168.26	-0.69	167.61	-16.01	83.48
1040.00	-17.70	4.21	-0.73	164.17	-0.69	163.40	-16.10	80.25
1050.00	-17.84	-1.00	-0.75	159.98	-0.69	159.37	-16.17	76.76
1060.00	-18.01	-6.88	-0.75	155.97	-0.71	155.33	-16.30	73.67
1070.00	-18.10	-12.46	-0.73	152.09	-0.69	151.36	-16.39	70.69
1080.00	-18.29	-17.99	-0.71	148.21	-0.70	147.39	-16.47	67.83
1090.00	-18.48	-23.99	-0.71	144.30	-0.69	143.41	-16.57	64.96
1100.00	-18.75	-30.34	-0.70	140.12	-0.69	139.38	-16.69	62.39
1110.00	-18.93	-36.83	-0.69	136.37	-0.71	135.53	-16.84	60.12
1120.00	-19.10	-43.10	-0.69	132.48	-0.71	131.62	-16.96	57.66
1130.00	-19.22	-50.09	-0.68	128.67	-0.73	127.73	-17.17	55.41
1140.00	-19.33	-56.40	-0.70	124.74	-0.72	123.99	-17.27	53.10
1150.00	-19.45	-62.23	-0.69	121.00	-0.73	120.11	-17.34	50.97
1160.00	-19.61	-69.07	-0.67	117.23	-0.74	116.26	-17.53	48.94
1170.00	-19.69	-75.89	-0.66	113.52	-0.74	112.50	-17.62	46.87
1180.00	-19.84	-82.43	-0.66	109.66	-0.77	108.89	-17.77	44.81
1190.00	-19.88	-88.57	-0.67	105.83	-0.75	105.09	-17.89	43.04
1200.00	-19.91	-94.81	-0.67	102.10	-0.75	101.46	-18.02	41.35
1210.00	-19.96	-100.86	-0.65	98.38	-0.76	97.72	-18.11	39.06
1220.00	-20.06	-106.81	-0.66	94.67	-0.78	94.04	-18.21	37.21
1230.00	-20.19	-112.88	-0.65	90.93	-0.79	90.36	-18.34	35.31
1240.00	-20.24	-119.47	-0.66	87.13	-0.80	86.71	-18.45	33.41
1250.00	-20.19	-125.61	-0.67	83.46	-0.80	83.04	-18.58	30.89
1260.00	-20.25	-131.13	-0.65	79.92	-0.80	79.51	-18.77	29.16
1270.00	-20.31	-136.21	-0.66	76.17	-0.81	75.81	-18.86	27.24
1280.00	-20.41	-142.63	-0.65	72.61	-0.81	72.38	-19.01	25.23
1290.00	-20.57	-148.45	-0.66	68.92	-0.81	68.93	-19.00	23.26
1300.00	-20.62	-153.95	-0.66	65.19	-0.81	65.31	-19.25	21.35
1310.00	-20.67	-159.44	-0.68	61.53	-0.78	61.67	-19.36	18.66
1320.00	-20.71	-164.20	-0.67	57.97	-0.80	58.12	-19.52	15.96
1330.00	-20.81	-168.39	-0.67	54.44	-0.80	54.56	-19.67	13.62
1340.00	-20.98	-172.80	-0.65	50.64	-0.81	50.94	-19.83	10.75
1350.00	-21.17	-178.86	-0.67	47.13	-0.81	47.48	-20.09	8.58
1360.00	-21.15	177.79	-0.68	43.40	-0.80	43.88	-20.34	5.50
1370.00	-21.23	173.34	-0.72	39.70	-0.79	40.31	-20.58	2.35
1380.00	-21.35	169.15	-0.70	36.35	-0.81	36.72	-20.86	0.27
1390.00	-21.62	165.16	-0.72	32.67	-0.80	33.06	-21.09	-2.86
1400.00	-21.96	160.95	-0.72	29.12	-0.80	29.58	-21.33	-5.91
1410.00	-22.14	156.86	-0.73	25.47	-0.81	26.12	-21.64	-8.26
1420.00	-22.52	152.79	-0.73	22.00	-0.80	22.68	-21.95	-10.78
1430.00	-22.87	148.47	-0.73	18.44	-0.78	19.00	-22.31	-14.60
1440.00	-23.31	145.09	-0.74	14.80	-0.76	15.43	-22.71	-18.04
1450.00	-23.67	142.37	-0.73	11.22	-0.78	11.96	-23.17	-21.69
1460.00	-24.20	138.93	-0.74	7.69	-0.78	8.37	-23.65	-25.22
1470.00	-24.82	136.60	-0.77	4.07	-0.76	4.80	-24.22	-29.21
1480.00	-25.38	135.45	-0.77	0.62	-0.76	1.25	-24.93	-32.94
1490.00	-25.92	134.36	-0.80	-2.99	-0.76	-2.36	-25.76	-37.14
1500.00	-26.49	133.65	-0.78	-6.52	-0.77	-5.98	-26.50	-41.76
1510.00	-27.25	134.92	-0.79	-10.00	-0.78	-9.55	-27.36	-46.30
1520.00	-28.08	137.12	-0.79	-13.61	-0.78	-13.08	-28.46	-51.77
1530.00	-28.85	141.27	-0.83	-17.15	-0.79	-16.75	-29.89	-57.17
1540.00	-29.33	143.98	-0.84	-20.67	-0.77	-20.35	-31.61	-62.35
1550.00	-29.71	149.39	-0.85	-24.12	-0.82	-23.71	-33.79	-69.21
1560.00	-29.83	153.20	-0.84	-27.57	-0.82	-27.40	-35.78	-80.57
1570.00	-30.17	158.33	-0.84	-31.03	-0.84	-30.90	-38.14	-96.19
1580.00	-29.89	166.64	-0.83	-34.57	-0.84	-34.49	-40.16	-124.41
1590.00	-29.74	170.59	-0.84	-37.98	-0.85	-38.02	-41.11	-166.38
1600.00	-29.06	175.16	-0.85	-41.65	-0.86	-41.44	-38.55	161.27
1610.00	-28.11	178.58	-0.85	-45.18	-0.86	-45.20	-34.96	148.52
1620.00	-27.04	-179.34	-0.84	-48.71	-0.88	-48.62	-32.76	132.81
1630.00	-26.03	-178.77	-0.86	-52.23	-0.88	-52.20	-31.22	125.79
1640.00	-25.29	-176.95	-0.86	-55.80	-0.89	-55.83	-29.91	119.58
1650.00	-24.59	-178.59	-0.86	-59.31	-0.91	-59.19	-28.46	112.29
1660.00	-23.95	-178.67	-0.85	-62.83	-0.91	-62.71	-27.63	107.87
1670.00	-23.15	-177.88	-0.85	-66.42	-0.91	-66.26	-26.36	102.13
1680.00	-22.80	-178.88	-0.84	-70.09	-0.91	-69.80	-25.42	96.73
1690.00	-21.92	177.14	-0.84	-73.81	-0.91	-73.23	-24.74	92.92
1700.00	-21.53	174.97	-0.85	-77.28	-0.94	-76.97	-24.34	87.45
1710.00	-20.92	173.11	-0.86	-80.89	-0.93	-80.50	-23.62	82.41
1720.00	-20.56	171.32	-0.84	-84.42	-0.95	-83.96	-22.97	77.89
1730.00	-20.11	168.22	-0.85	-88.20	-0.92	-87.33	-22.33	72.92
1740.00	-19.66	165.91	-0.81	-92.05	-0.89	-90.99	-21.74	69.70
1750.00	-19.26	162.08	-0.85	-95.72	-0.92	-94.78	-21.25	64.71
1760.00	-18.98	160.34	-0.88	-99.30	-0.93	-98.47	-21.01	60.59
1770.00	-18.77	157.73	-0.89	-102.94	-0.95	-102.02	-20.62	55.44
1780.00	-18.29	153.23	-0.85	-106.69	-0.94	-105.47	-20.36	52.35
1790.00	-18.10	149.70	-0.87	-110.37	-0.91	-108.86	-19.92	48.03
1800.00	-17.95	146.63	-0.89	-114.21	-0.89	-112.58	-19.67	43.30
1810.00	-17.83	143.16	-0.91	-118.06	-0.88	-116.50	-19.48	38.42
1820.00	-17.84	141.03	-0.95	-121.56	-0.88	-120.24	-19.44	33.89
1830.00	-17.53	138.34	-0.98	-125.23	-0.94	-123.86	-19.35	28.84
1840.00	-17.49	134.88	-0.95	-129.05	-0.93	-127.30	-19.20	24.27
1850.00	-17.41	131.71	-0.99	-132.76	-0.87	-130.98	-19.14	19.79
1860.00	-17.45	128.71	-1.01	-136.64	-0.86	-134.97	-19.17	14.52
1870.00	-17.54	125.84	-1.04	-140.21	-0.86	-138.81	-19.29	10.62
1880.00	-17.44	123.70	-1.07	-143.93	-0.85	-142.60	-19.39	5.93
1890.00	-17.70	121.36	-1.09	-147.60	-0.89	-146.41	-19.43	0.81
1900.00	-17.80	118.97	-1.10	-151.36	-0.90	-150.14	-19.53	-4.14
1910.00	-17.91	115.75	-1.13	-155.16	-0.89	-153.81	-19.65	-9.40
1920.00	-18.03	114.14	-1.15	-158.89	-0.87	-157.70	-19.80	-14.29
1930.00	-18.17	111.77	-1.20	-162.55	-0.89	-161.58	-20.12	-19.36
1940.00	-18.36	110.68	-1.22	-166.27	-0.89	-165.57	-20.30	-24.38
1950.00	-18.52	108.41	-1.21	-169.76	-0.93	-169.36	-20.48	-30.09
1960.00	-18.76	106.08	-1.25	-173.62	-0.93	-173.13	-20.75	-35.54
1970.00	-19.22	104.52	-1.25	-177.42	-0.93	-177.05	-21.06	-41.61
1980.00	-19.31	101.45	-1.26	179.06	-0.92	179.17	-21.42	-47.26
1990.00	-19.72	100.38	-1.26	175.26	-0.92	175.17	-21.79	-53.73
2000.00	-20.12	99.58	-1.24	171.56	-0.93	171.23	-22.33	-61.11
2010.00	-20.39	99.41	-1.26	167.76	-0.95	167.20	-22.75	-68.94
2020.00	-20.83	98.67	-1.25	163.95	-1.00	163.30	-23.39	-76.70
2030.00	-21.25	99.17	-1.24	160.07	-0.99	159.38	-23.74	-84.93
2040.00	-21.95	98.46	-1.24	156.32	-1.00	155.35	-24.20	-93.67
2050.00	-22.41	101.01	-1.23	152.34	-1.00	151.40	-24.88	-104.48
2060.00	-22.70	104.59	-1.23	148.34	-1.02	147.34	-25.39	-115.37
2070.00	-23.25	108.18	-1.19	144.30	-1.03	143.30	-25.95	-127.26
2080.00	-23.53	111.21	-1.20	140.46	-1.04	139.31	-26.58	-139.63
2090.00	-23.69	117.52	-1.19	136.13	-1.05	135.14	-26.74	-152.72
2100.00	-24.12	121.91	-1.18	131.99	-1.07	131.14	-27.04	-167.39
2110.00	-24.05	126.22	-1.18	127.86	-1.12	126.95	-26.89	177.67
2120.00	-23.95	129.47	-1.16	123.61	-1.09	122.99	-26.47	163.93
2130.00	-23.45	133.60	-1.10	119.09	-1.07	118.88	-25.75	149.46
2140.00	-22.90	137.83	-1.14	114.66	-1.08	114.41	-25.59	136.28
2150.00	-22.27	143.29	-1.15	110.28	-1.10	110.18	-24.92	123.81
2160.00	-21.67	145.34	-1.19	105.93	-1.12	105.81	-24.38	112.76
2170.00	-20.98	146.59	-1.17	101.77	-1.15	101.68	-23.73	102.80
2180.00	-20.40	145.93	-1.21	97.09	-1.14	97.49	-23.21	93.07
2190.00	-19.72	146.34	-1.21	92.42	-1.11	93.05	-22.76	82.30
2200.00	-18.97	146.52	-1.28	87.74	-1.12	88.55	-22.21	73.52
2210.00	-18.55	145.72	-1.32	83.07	-1.13	83.80	-21.87	64.64
2220.00	-18.16	145.27	-1.37	78.67	-1.20	79.31	-21.63	54.60
2230.00	-17.65	145.98	-1.43	74.05	-1.21	74.88	-21.29	46.94
2240.00	-17.05	144.16	-1.48	69.41	-1.22	70.46	-20.95	37.36
2250.00	-16.72	142.99	-1.54	64.81	-1.22	65.89	-20.69	28.03
2260.00	-16.43	142.34	-1.63	60.22	-1.23	61.01	-20.54	18.74
2270.00	-16.05	141.67	-1.71	55.57	-1.24	56.14	-20.42	8.78
2280.00	-15.68	141.12	-1.74	51.43	-1.28	51.35	-20.30	-0.30
2290.00	-15.35	140.31	-1.79	46.67	-1.32	46.34	-19.93	-10.03
2300.00	-15.06	140.34	-1.85	42.11	-1.36	41.59	-19.66	-22.32
2310.00	-14.76	138.20	-1.90	37.41	-1.35	36.89	-19.61	-32.85
2320.00	-14.46	138.39	-1.95	32.81	-1.34	31.62	-19.58	-43.69
2330.00	-14.06	138.16	-1.98	27.96	-1.35	26.29	-19.18	-55.89
2340.00	-13.62	137.65	-2.02	23.51	-1.41	21.04	-18.68	-68.27
2350.00	-13.25	137.47	-2.00	18.56	-1.47	15.57	-18.21	-81.05
2360.00	-12.79	137.45	-2.00	13.43	-1.54	10.20	-17.70	-93.76
2370.00	-12.43	136.47	-2.02	8.29	-1.57	4.95	-17.27	-106.99
2380.00	-11.97	136.33	-2.05	2.82	-1.56	-0.77	-16.58	-120.14
2390.00	-11.55	136.21	-2.05	-2.46	-1.60	-6.57	-15.89	-133.02
2400.00	-11.03	135.02	-2.00	-8.09	-1.68	-12.76	-15.05	-146.09
2410.00	-10.44	134.15	-1.99	-14.25	-1.77	-19.06	-14.20	-158.66
2420.00	-9.95	132.79	-2.03	-20.80	-1.95	-25.33	-13.45	-171.21
2430.00	-9.41	131.30	-2.15	-27.42	-2.08	-31.75	-12.69	176.87
2440.00	-8.90	129.51	-2.27	-33.94	-2.27	-37.67	-11.85	165.07
2450.00	-8.31	127.80	-2.36	-40.56	-2.37	-44.18	-11.10	153.80
2460.00	-7.78	125.45	-2.49	-47.95	-2.52	-51.15	-10.39	143.25
2470.00	-7.26	123.21	-2.74	-55.70	-2.77	-58.34	-9.65	132.58
2480.00	-6.79	120.76	-3.14	-63.23	-3.13	-65.71	-9.03	122.65
2490.00	-6.29	118.36	-3.57	-69.76	-3.59	-72.13	-8.43	113.00
2500.00	-5.79	115.40	-3.98	-76.36	-3.94	-78.37	-7.84	103.52
2510.00	-5.29	112.07	-4.31	-83.63	-4.23	-84.80	-7.26	93.82
2520.00	-4.89	108.75	-4.85	-91.05	-4.53	-92.20	-6.75	84.43
2530.00	-4.52	105.43	-5.52	-98.16	-5.03	-100.05	-6.28	75.37
2540.00	-4.13	102.14	-6.30	-103.89	-5.73	-107.20	-5.82	66.31
2550.00	-3.76	98.59	-6.89	-108.97	-6.42	-112.86	-5.37	57.65
2560.00	-3.40	94.38	-7.45	-114.45	-6.96	-117.70	-4.98	48.98
2570.00	-3.16	90.63	-8.03	-119.98	-7.44	-123.45	-4.68	40.25
2580.00	-2.87	86.85	-8.76	-125.88	-7.93	-130.52	-4.36	31.75
2590.00	-2.63	83.23	-9.57	-130.00	-8.63	-137.76	-4.02	23.51
2600.00	-2.44	79.55	-10.27	-133.45	-9.58	-143.98	-3.79	15.11
2610.00	-2.25	75.79	-10.77	-136.96	-10.41	-148.02	-3.50	7.22
2620.00	-2.10	71.91	-11.25	-141.42	-11.04	-151.54	-3.31	-0.44
2630.00	-1.96	68.13	-11.88	-145.95	-11.51	-156.09	-3.13	-7.72
2640.00	-1.84	64.89	-12.52	-149.66	-12.13	-162.09	-2.97	-15.32
2650.00	-1.72	61.50	-13.07	-152.64	-12.97	-168.16	-2.83	-22.70
2675.00	-1.54	52.75	-14.08	-161.59	-15.17	-176.50	-2.57	-40.66
2700.00	-1.36	44.70	-15.31	-171.23	-16.56	172.90	-2.29	-56.51
2725.00	-1.21	36.94	-16.25	178.21	-18.76	164.90	-2.13	-72.11
2750.00	-1.13	29.37	-17.27	167.02	-20.03	157.35	-1.99	-87.31
2775.00	-1.01	22.14	-18.36	154.29	-21.85	148.47	-1.92	-101.25
2800.00	-0.95	14.96	-19.68	141.78	-23.30	142.23	-1.95	-114.43
2825.00	-0.92	7.96	-21.20	128.54	-24.85	133.28	-1.83	-127.11
2850.00	-0.85	0.90	-22.84	116.14	-26.36	127.43	-1.81	-138.84
2875.00	-0.79	-5.83	-24.73	103.01	-27.99	119.77	-1.85	-149.63
2900.00	-0.75	-12.54	-26.78	93.75	-29.40	113.70	-1.73	-160.51
2925.00	-0.71	-19.41	-28.53	82.21	-30.42	108.31	-1.71	-170.41
2950.00	-0.68	-26.13	-30.58	71.51	-31.80	98.17	-1.78	179.82
2975.00	-0.66	-32.95	-32.95	60.18	-33.38	87.84	-1.69	170.80
3000.00	-0.62	-39.65	-35.52	53.10	-34.80	81.35	-1.73	162.52
3025.00	-0.56	-46.24	-37.45	42.74	-36.47	69.48	-1.71	153.72
3050.00	-0.57	-52.90	-40.38	27.32	-37.75	56.88	-1.63	146.06
3075.00	-0.56	-59.65	-43.06	23.76	-40.12	46.30	-1.68	138.70
3100.00	-0.54	-66.38	-46.45	13.10	-42.84	36.53	-1.60	130.55
3125.00	-0.52	-73.00	-49.79	6.68	-44.30	15.29	-1.55	123.81
3150.00	-0.50	-79.70	-54.48	-20.99	-49.57	-5.92	-1.66	116.98
3175.00	-0.52	-86.46	-62.30	-49.30	-55.73	-35.71	-1.57	110.17
3200.00	-0.48	-93.15	-62.08	-114.03	-59.92	-127.95	-1.58	104.70
3225.00	-0.50	-99.82	-57.37	165.30	-51.11	155.94	-1.58	97.95
3250.00	-0.51	-106.66	-58.32	117.18	-52.66	108.71	-1.51	92.20
3275.00	-0.54	-113.27	-59.92	87.22	-54.46	68.68	-1.50	86.85
3300.00	-0.52	-119.94	-79.04	167.19	-69.72	-165.83	-1.43	80.07
3325.00	-0.52	-126.60	-64.14	-121.44	-62.01	-162.49	-1.37	74.82
3350.00	-0.56	-133.00	-57.10	-172.24	-54.82	152.09	-1.44	68.88
3375.00	-0.61	-139.77	-55.84	147.05	-55.60	108.42	-1.35	63.63
3400.00	-0.61	-146.02	-58.02	143.92	-55.79	117.26	-1.33	58.42
3425.00	-0.62	-152.56	-55.72	148.75	-57.63	105.10	-1.33	52.58
3450.00	-0.65	-158.73	-61.32	145.72	-63.30	81.36	-1.27	47.43
3475.00	-0.69	-165.20	-56.50	-176.44	-57.25	155.60	-1.29	42.82
3500.00	-0.70	-171.30	-50.10	167.39	-54.24	127.04	-1.23	37.13
3525.00	-0.73	-177.52	-49.00	120.40	-54.98	89.54	-1.15	32.38
3550.00	-0.78	176.37	-59.52	84.76	-64.12	30.16	-1.23	26.88
3575.00	-0.78	170.33	-52.32	157.88	-54.86	142.38	-1.18	21.89
3600.00	-0.84	164.20	-47.43	109.68	-52.83	95.48	-1.17	17.68
3625.00	-0.84	158.29	-49.92	74.27	-54.43	54.24	-1.11	12.20
3650.00	-0.83	153.05	-50.55	29.66	-55.55	20.15	-0.98	7.33
3675.00	-0.92	147.23	-53.29	-28.01	-58.54	-40.50	-1.01	2.54
3700.00	-0.87	141.45	-52.20	-110.23	-59.03	-116.71	-0.94	-2.97
3725.00	-0.93	135.92	-49.96	178.16	-56.38	-164.31	-0.89	-7.58
3750.00	-0.95	130.25	-51.05	141.55	-56.05	165.38	-0.90	-12.75
3775.00	-0.91	124.68	-47.21	100.03	-51.99	128.34	-0.82	-18.07
3800.00	-1.00	119.66	-45.04	73.21	-49.56	103.11	-0.80	-22.69
3825.00	-0.96	114.20	-44.49	34.18	-50.14	66.45	-0.81	-28.20
3850.00	-0.99	108.92	-46.76	-8.13	-50.93	29.17	-0.74	-33.19
3875.00	-0.99	103.79	-50.14	-35.22	-52.19	6.43	-0.79	-38.27
3900.00	-1.00	98.38	-54.06	-50.19	-57.73	16.43	-0.78	-43.61
