! Mini-Circuits								
! S2P DATA File Format								
! Type: BAND PASS FILTER								
! Model: CBP-B1230C+								
! All S Parameters are in dB deg format								
! TEST CONDITIONS: INPUT POWER = 0 dBm @ Temperature = +25deg C								
! 453 Frequency points								
!								
# MHz S DB R 50							
!
!Frequency     S11 dB   S11 DEG  S21 dB   S21 DEG  S12 dB   S12 DEG  S22 dB   S22 DEG  
   1.0000      -0.07     -0.15     -66.92     117.77     -54.66     11.54     -0.07     -0.21     
   2.0000      -0.06     -0.15     -71.5     155.98     -72.19     -74.19     -0.06     -0.31     
   3.0000      -0.05     -0.42     -75.65     -109.9     -66.67     -32.89     -0.06     -0.45     
   4.0000      -0.07     -0.65     -69.98     -101.12     -78.1     135.37     -0.06     -0.59     
   5.0000      -0.06     -0.69     -82.71     -89.68     -75.7     -97.86     -0.07     -0.73     
  10.0000      -0.06     -1.4     -77.5     22.03     -76.66     99.17     -0.06     -1.45     
  15.0000      -0.06     -2.09     -95.45     137.95     -77.58     -33.09     -0.06     -2.13     
  20.0000      -0.06     -2.77     -92.89     179.32     -86.42     177.07     -0.06     -2.83     
  25.0000      -0.06     -3.46     -88.03     -148.81     -83.74     85.17     -0.06     -3.55     
  30.0000      -0.06     -4.17     -85.63     94.13     -98.06     -138.37     -0.06     -4.26     
  35.0000      -0.06     -4.86     -87.34     -88.09     -88.44     88.36     -0.06     -4.94     
  40.0000      -0.06     -5.54     -87.98     -7.81     -87.55     -89.67     -0.06     -5.63     
  45.0000      -0.05     -6.22     -93.97     2.94     -82.88     157.04     -0.06     -6.33     
  50.0000      -0.06     -6.88     -96.85     -38.87     -86.34     -142.7     -0.06     -7.04     
  75.0000      -0.05     -10.38     -90.07     -3.04     -95.43     -48.38     -0.05     -10.58     
 100.0000      -0.05     -13.86     -100.73     146.58     -104.91     -25.68     -0.05     -14.12     
 125.0000      -0.05     -17.37     -94.81     -108.92     -103.43     -135.21     -0.05     -17.65     
 150.0000      -0.05     -20.84     -92.97     -105.02     -103.56     -1.96     -0.05     -21.22     
 175.0000      -0.05     -24.34     -96.62     -131.05     -103.53     -162.85     -0.05     -24.79     
 200.0000      -0.05     -27.84     -93.15     -126.9     -97.6     -96.89     -0.05     -28.36     
 225.0000      -0.05     -31.36     -105.09     -174.78     -92.8     -131.92     -0.06     -31.93     
 250.0000      -0.06     -34.9     -91.75     -146.29     -90.42     -142.8     -0.06     -35.57     
 275.0000      -0.06     -38.47     -86.52     -130.32     -87.57     -136.48     -0.06     -39.22     
 300.0000      -0.06     -42.06     -87.98     -149.47     -86.91     -142.17     -0.06     -42.85     
 325.0000      -0.07     -45.66     -84.62     -148.67     -84.78     -131.28     -0.07     -46.55     
 350.0000      -0.07     -49.29     -84.12     -151.08     -82.36     -152.21     -0.07     -50.27     
 375.0000      -0.07     -52.94     -80.13     -158.09     -80.01     -155.51     -0.08     -54     
 400.0000      -0.08     -56.64     -80.89     -156.84     -79.92     -157.97     -0.08     -57.78     
 425.0000      -0.09     -60.39     -77.55     -164.41     -78.04     -161.55     -0.09     -61.59     
 450.0000      -0.1     -64.18     -77.11     -170.41     -75.9     -166     -0.1     -65.47     
 475.0000      -0.11     -68     -75.83     -164.48     -75.52     -166.4     -0.11     -69.39     
 500.0000      -0.11     -71.89     -74.54     -177.99     -75.04     -175.45     -0.11     -73.37     
 525.0000      -0.12     -75.86     -74.18     -178.17     -74.32     -175.11     -0.13     -77.43     
 550.0000      -0.13     -79.9     -72.76     175.87     -72.87     179.23     -0.14     -81.57     
 575.0000      -0.14     -84.03     -72.21     170.09     -72.51     174.89     -0.14     -85.79     
 600.0000      -0.15     -88.28     -71.75     164.95     -71.94     167.69     -0.15     -90.12     
 625.0000      -0.16     -92.64     -72.79     166.64     -71.57     162.23     -0.16     -94.6     
 650.0000      -0.17     -97.16     -73.88     156.79     -73.12     155.33     -0.18     -99.24     
 675.0000      -0.18     -101.85     -75.1     146.91     -75.38     154.07     -0.19     -104.01     
 700.0000      -0.19     -106.74     -84.37     122.17     -86.19     97.31     -0.2     -108.98     
 725.0000      -0.2     -111.88     -75.82     -10.94     -76.6     -6.95     -0.21     -114.23     
 750.0000      -0.22     -117.31     -66.16     -25.15     -66.16     -25.79     -0.22     -119.74     
 755.0000      -0.22     -118.44     -64.7     -28.61     -64.54     -29.1     -0.23     -120.89     
 760.0000      -0.22     -119.57     -63.52     -30.17     -63.47     -28.1     -0.23     -122.04     
 765.0000      -0.23     -120.72     -61.9     -30.03     -61.79     -30.69     -0.23     -123.22     
 770.0000      -0.23     -121.9     -60.62     -33.01     -60.6     -32.87     -0.23     -124.4     
 775.0000      -0.23     -123.08     -59.25     -33.51     -59.32     -33.92     -0.24     -125.6     
 780.0000      -0.23     -124.3     -58.15     -35.12     -58.11     -35.84     -0.24     -126.83     
 785.0000      -0.24     -125.52     -56.94     -36.58     -57.15     -37.76     -0.24     -128.07     
 790.0000      -0.24     -126.76     -55.8     -38.18     -55.91     -38.99     -0.24     -129.32     
 795.0000      -0.24     -128.01     -54.69     -40.09     -54.71     -39.91     -0.25     -130.6     
 800.0000      -0.24     -129.31     -53.61     -41.84     -53.62     -41.82     -0.25     -131.9     
 805.0000      -0.25     -130.6     -52.47     -43.53     -52.49     -42.88     -0.25     -133.21     
 810.0000      -0.25     -131.93     -51.36     -45.09     -51.4     -45.31     -0.25     -134.56     
 815.0000      -0.25     -133.29     -50.28     -47.08     -50.31     -47.21     -0.26     -135.91     
 820.0000      -0.25     -134.67     -49.27     -49.38     -49.26     -49.99     -0.26     -137.32     
 825.0000      -0.26     -136.07     -48.33     -53.66     -48.38     -53.64     -0.26     -138.74     
 830.0000      -0.26     -137.47     -47.86     -54.96     -47.9     -54.99     -0.27     -140.18     
 835.0000      -0.26     -138.93     -46.95     -54.39     -46.93     -54.45     -0.27     -141.64     
 840.0000      -0.27     -140.42     -45.88     -55.13     -45.94     -55.11     -0.27     -143.14     
 845.0000      -0.27     -141.93     -44.87     -56.34     -44.89     -56.39     -0.27     -144.68     
 850.0000      -0.27     -143.49     -43.88     -57.81     -43.92     -57.65     -0.28     -146.24     
 855.0000      -0.28     -145.08     -42.9     -59.02     -42.95     -59.03     -0.28     -147.83     
 860.0000      -0.28     -146.7     -41.88     -60.59     -41.9     -60.54     -0.28     -149.48     
 865.0000      -0.28     -148.36     -40.89     -62.16     -40.91     -62.1     -0.29     -151.13     
 870.0000      -0.29     -150.04     -39.88     -63.78     -39.91     -63.93     -0.29     -152.85     
 875.0000      -0.29     -151.83     -38.91     -65.64     -38.92     -65.63     -0.29     -154.61     
 880.0000      -0.29     -153.65     -37.91     -67.48     -37.92     -67.58     -0.3     -156.41     
 885.0000      -0.29     -155.51     -36.93     -69.35     -36.94     -69.39     -0.3     -158.26     
 890.0000      -0.3     -157.4     -35.94     -71.31     -35.96     -71.36     -0.31     -160.18     
 895.0000      -0.3     -159.37     -34.94     -73.3     -34.95     -73.35     -0.31     -162.14     
 900.0000      -0.31     -161.37     -33.94     -75.33     -33.95     -75.4     -0.31     -164.17     
 905.0000      -0.31     -163.47     -32.95     -77.44     -32.96     -77.47     -0.32     -166.26     
 910.0000      -0.32     -165.62     -31.93     -79.59     -31.94     -79.61     -0.32     -168.41     
 915.0000      -0.32     -167.84     -30.92     -81.81     -30.92     -81.83     -0.33     -170.66     
 920.0000      -0.33     -170.17     -29.89     -84.25     -29.89     -84.23     -0.33     -172.98     
 925.0000      -0.34     -172.59     -28.86     -86.66     -28.87     -86.68     -0.34     -175.37     
 930.0000      -0.35     -175.09     -27.81     -89.22     -27.82     -89.2     -0.35     -177.88     
 935.0000      -0.35     -177.71     -26.76     -91.91     -26.77     -91.89     -0.36     179.54     
 940.0000      -0.36     179.54     -25.71     -94.67     -25.71     -94.64     -0.37     176.83     
 945.0000      -0.37     176.69     -24.64     -97.53     -24.64     -97.52     -0.38     173.99     
 950.0000      -0.39     173.73     -23.55     -100.54     -23.55     -100.5     -0.39     171.04     
 955.0000      -0.4     170.6     -22.45     -103.71     -22.46     -103.65     -0.4     167.94     
 960.0000      -0.42     167.3     -21.34     -107.03     -21.34     -106.97     -0.42     164.67     
 965.0000      -0.44     163.82     -20.22     -110.54     -20.22     -110.5     -0.44     161.21     
 970.0000      -0.46     160.14     -19.09     -114.25     -19.09     -114.22     -0.47     157.55     
 975.0000      -0.5     156.23     -17.94     -118.21     -17.94     -118.18     -0.5     153.67     
 980.0000      -0.53     152.09     -16.77     -122.4     -16.77     -122.37     -0.54     149.55     
 985.0000      -0.58     147.63     -15.6     -126.9     -15.59     -126.83     -0.58     145.15     
 990.0000      -0.65     142.87     -14.41     -131.7     -14.4     -131.65     -0.65     140.43     
 995.0000      -0.72     137.75     -13.21     -136.85     -13.21     -136.82     -0.73     135.36     
1000.0000      -0.83     132.23     -12.01     -142.42     -12.01     -142.39     -0.83     129.89     
1002.0000      -0.88     129.89     -11.53     -144.78     -11.52     -144.74     -0.88     127.6     
1004.0000      -0.93     127.5     -11.05     -147.2     -11.04     -147.17     -0.94     125.2     
1006.0000      -1     125     -10.57     -149.72     -10.56     -149.67     -1     122.75     
1008.0000      -1.07     122.46     -10.09     -152.3     -10.08     -152.28     -1.07     120.2     
1010.0000      -1.14     119.81     -9.62     -154.97     -9.61     -154.95     -1.15     117.58     
1012.0000      -1.23     117.08     -9.14     -157.74     -9.13     -157.7     -1.23     114.89     
1014.0000      -1.32     114.26     -8.68     -160.59     -8.66     -160.55     -1.33     112.08     
1016.0000      -1.43     111.35     -8.21     -163.55     -8.2     -163.52     -1.44     109.2     
1018.0000      -1.55     108.35     -7.75     -166.58     -7.74     -166.56     -1.56     106.23     
1020.0000      -1.68     105.27     -7.31     -169.71     -7.29     -169.68     -1.69     103.15     
1022.0000      -1.83     102.1     -6.86     -172.91     -6.85     -172.9     -1.84     100     
1024.0000      -1.99     98.81     -6.43     -176.27     -6.42     -176.25     -2.01     96.75     
1026.0000      -2.18     95.46     -6.01     -179.68     -6     -179.65     -2.19     93.41     
1028.0000      -2.38     92.01     -5.6     176.81     -5.59     176.86     -2.39     90     
1030.0000      -2.61     88.49     -5.2     173.23     -5.19     173.26     -2.62     86.49     
1032.0000      -2.85     84.89     -4.82     169.54     -4.81     169.58     -2.86     82.91     
1034.0000      -3.12     81.22     -4.45     165.8     -4.44     165.83     -3.14     79.26     
1036.0000      -3.42     77.51     -4.1     162     -4.09     162.01     -3.44     75.53     
1038.0000      -3.75     73.73     -3.77     158.13     -3.76     158.14     -3.76     71.76     
1040.0000      -4.1     69.9     -3.45     154.19     -3.45     154.21     -4.12     67.94     
1042.0000      -4.48     66.06     -3.16     150.25     -3.15     150.25     -4.5     64.08     
1044.0000      -4.9     62.19     -2.89     146.27     -2.88     146.27     -4.92     60.21     
1046.0000      -5.34     58.33     -2.63     142.27     -2.63     142.27     -5.37     56.33     
1048.0000      -5.82     54.48     -2.4     138.27     -2.39     138.27     -5.85     52.47     
1050.0000      -6.33     50.62     -2.19     134.29     -2.18     134.29     -6.36     48.6     
1052.0000      -6.87     46.84     -1.99     130.31     -1.99     130.3     -6.9     44.76     
1054.0000      -7.44     43.04     -1.82     126.37     -1.81     126.35     -7.48     40.96     
1056.0000      -8.05     39.35     -1.66     122.45     -1.65     122.44     -8.09     37.19     
1058.0000      -8.69     35.73     -1.52     118.59     -1.51     118.56     -8.74     33.49     
1060.0000      -9.36     32.17     -1.4     114.77     -1.39     114.75     -9.41     29.84     
1062.0000      -10.06     28.71     -1.29     111.02     -1.28     110.98     -10.11     26.25     
1064.0000      -10.78     25.34     -1.19     107.31     -1.18     107.29     -10.85     22.74     
1066.0000      -11.54     22.11     -1.1     103.67     -1.1     103.65     -11.62     19.31     
1068.0000      -12.33     18.99     -1.03     100.12     -1.02     100.1     -12.42     15.95     
1070.0000      -13.15     15.94     -0.96     96.61     -0.96     96.6     -13.25     12.7     
1072.0000      -14     13.08     -0.9     93.18     -0.9     93.17     -14.11     9.47     
1074.0000      -14.88     10.41     -0.85     89.82     -0.85     89.79     -15.01     6.36     
1076.0000      -15.78     7.79     -0.82     86.5     -0.81     86.51     -15.95     3.31     
1078.0000      -16.72     5.39     -0.78     83.28     -0.77     83.27     -16.9     0.35     
1080.0000      -17.68     3.21     -0.75     80.11     -0.74     80.11     -17.9     -2.56     
1082.0000      -18.68     1.19     -0.72     77.01     -0.71     77     -18.94     -5.44     
1084.0000      -19.7     -0.48     -0.69     73.94     -0.69     73.95     -20.03     -8.2     
1086.0000      -20.75     -2     -0.67     70.96     -0.67     70.95     -21.15     -10.92     
1088.0000      -21.83     -3.17     -0.66     68.03     -0.65     68.02     -22.32     -13.59     
1090.0000      -22.93     -4.01     -0.64     65.15     -0.64     65.14     -23.53     -16.29     
1092.0000      -24.04     -4.44     -0.63     62.32     -0.62     62.33     -24.82     -18.85     
1094.0000      -25.17     -4.35     -0.61     59.52     -0.61     59.52     -26.16     -21.73     
1096.0000      -26.28     -3.89     -0.6     56.8     -0.6     56.79     -27.57     -24.53     
1098.0000      -27.42     -2.77     -0.6     54.1     -0.59     54.1     -29.05     -27.59     
1100.0000      -28.45     -0.89     -0.59     51.44     -0.58     51.45     -30.63     -30.42     
1102.0000      -29.49     1.08     -0.58     48.83     -0.58     48.82     -32.28     -34.15     
1104.0000      -30.4     3.96     -0.57     46.25     -0.57     46.24     -34.04     -37.49     
1106.0000      -31.18     7.05     -0.57     43.71     -0.56     43.69     -36.01     -42.48     
1108.0000      -31.83     10.64     -0.56     41.2     -0.56     41.19     -38     -47.92     
1110.0000      -32.41     13.32     -0.55     38.71     -0.55     38.69     -40.25     -56.2     
1112.0000      -32.77     16.05     -0.55     36.25     -0.55     36.24     -42.54     -67.15     
1114.0000      -33.02     18.45     -0.54     33.83     -0.54     33.81     -44.69     -80.39     
1116.0000      -33.18     20.2     -0.54     31.44     -0.54     31.42     -46.18     -98.83     
1118.0000      -33.32     21.29     -0.54     29.05     -0.54     29.03     -46.45     -119.83     
1120.0000      -33.32     21.34     -0.53     26.71     -0.53     26.68     -45.84     -134.44     
1122.0000      -33.27     21.04     -0.53     24.38     -0.53     24.35     -45.13     -145.38     
1124.0000      -33.34     19.94     -0.52     22.07     -0.52     22.04     -44.27     -153.37     
1126.0000      -33.28     18.81     -0.52     19.79     -0.52     19.78     -43.29     -155.72     
1128.0000      -33.27     16.44     -0.52     17.53     -0.52     17.51     -42.55     -158.94     
1130.0000      -33.29     13.23     -0.52     15.29     -0.52     15.25     -41.79     -160.52     
1132.0000      -33.26     10.48     -0.51     13.07     -0.51     13.04     -41.17     -161.73     
1134.0000      -33.18     7.3     -0.51     10.87     -0.51     10.84     -40.58     -161.76     
1136.0000      -33.12     3.56     -0.51     8.69     -0.5     8.65     -40.11     -161.85     
1138.0000      -33.09     -0.26     -0.5     6.52     -0.5     6.51     -39.44     -160.51     
1140.0000      -33.02     -3.47     -0.5     4.4     -0.5     4.36     -38.94     -159.92     
1142.0000      -32.96     -7.67     -0.5     2.22     -0.5     2.25     -38.45     -159.88     
1144.0000      -32.93     -11.19     -0.5     0.14     -0.5     0.13     -38.01     -159.11     
1146.0000      -32.76     -15.06     -0.49     -1.96     -0.49     -1.99     -37.57     -159.25     
1148.0000      -32.67     -19     -0.49     -4.02     -0.49     -4.05     -37.07     -158.99     
1150.0000      -32.6     -22.86     -0.49     -6.08     -0.49     -6.11     -36.67     -159.29     
1152.0000      -32.49     -25.87     -0.49     -8.13     -0.49     -8.17     -36.26     -159.73     
1154.0000      -32.41     -29.36     -0.49     -10.17     -0.48     -10.17     -35.85     -160.33     
1156.0000      -32.28     -32.66     -0.48     -12.19     -0.48     -12.21     -35.51     -161.44     
1158.0000      -32.21     -35.83     -0.48     -14.18     -0.48     -14.22     -35.22     -162.31     
1160.0000      -32.15     -38.84     -0.48     -16.19     -0.48     -16.23     -34.91     -163.4     
1162.0000      -32.07     -41.73     -0.48     -18.17     -0.48     -18.21     -34.66     -164.85     
1164.0000      -31.99     -44.41     -0.48     -20.15     -0.47     -20.17     -34.47     -166.7     
1166.0000      -31.93     -46.11     -0.47     -22.12     -0.47     -22.15     -34.3     -168.2     
1168.0000      -31.94     -48.75     -0.47     -24.07     -0.47     -24.11     -34.21     -170.44     
1170.0000      -31.91     -50.64     -0.47     -26.01     -0.47     -26.04     -34.06     -172.88     
1172.0000      -31.93     -52.34     -0.47     -27.93     -0.47     -27.96     -33.98     -174.96     
1174.0000      -31.96     -54.02     -0.47     -29.86     -0.46     -29.89     -34     -177.25     
1176.0000      -32     -55.33     -0.47     -31.77     -0.47     -31.79     -34.03     179.82     
1178.0000      -32.08     -56.5     -0.47     -33.67     -0.46     -33.7     -33.96     176.45     
1180.0000      -32.17     -57.43     -0.46     -35.57     -0.46     -35.58     -34.03     173.46     
1182.0000      -32.26     -57.73     -0.46     -37.47     -0.46     -37.48     -34.09     169.86     
1184.0000      -32.4     -58.74     -0.46     -39.32     -0.46     -39.35     -34.17     166.02     
1186.0000      -32.55     -58.33     -0.46     -41.18     -0.46     -41.2     -34.28     162.01     
1188.0000      -32.67     -57.89     -0.46     -43.02     -0.45     -43.05     -34.45     157.47     
1190.0000      -32.85     -57.92     -0.46     -44.88     -0.46     -44.91     -34.57     152.72     
1192.0000      -33.05     -56.66     -0.45     -46.71     -0.45     -46.74     -34.64     147.07     
1194.0000      -33.24     -55.25     -0.45     -48.53     -0.45     -48.56     -34.75     141.66     
1196.0000      -33.37     -53.45     -0.45     -50.36     -0.45     -50.38     -34.74     135.72     
1198.0000      -33.48     -51.46     -0.45     -52.17     -0.45     -52.19     -34.76     129.34     
1200.0000      -33.6     -48.8     -0.45     -53.96     -0.45     -53.99     -34.74     122.59     
