!Mini-Circuits Laboratory
!S-Parameters
!Model:HFCN-1000+
!Run/Lot/Date Code: CS0100//N/A
!DATA FOR: UNIT# 2 
!Fixture/SN/Due: N/A
!Connection: PORT-1 - pin<1>; PORT-2 - pin<3>    
!PORT EXTENSION IS DONE ON TEST BOARD(TB-270) 
!Created: 02-25-2013 at 10:37 AM

# MHZ S DB R 50
!Frequency        S11 dB  S11 DEG   S21 dB  S21 DEG   S12 dB  S12 DEG   S22 dB  S22 DEG
  10.0000     -4.717240E-002 -1.495955E+000 -6.821000E+001  1.022715E+002 -6.672890E+001  1.401440E+002 -4.537184E-002 -1.525671E+000
  20.0000     -4.857681E-002 -3.096870E+000 -7.781144E+001  1.038669E+002 -7.225690E+001  1.744187E+002 -5.258773E-002 -3.194418E+000
  30.0000     -4.382295E-002 -4.669095E+000 -7.724243E+001  8.294991E+001 -7.589337E+001  9.200053E+001 -4.770803E-002 -4.777438E+000
  40.0000     -3.906285E-002 -6.214639E+000 -7.727930E+001  6.892522E+001 -8.488036E+001  9.574178E+001 -4.563875E-002 -6.367384E+000
  50.0000     -5.110150E-002 -7.816129E+000 -5.675261E+001  1.698946E+002 -6.185381E+001 -5.325199E+001 -4.660481E-002 -8.072272E+000
  60.0000     -4.389066E-002 -9.320726E+000 -7.215797E+001  7.555859E+001 -6.883176E+001  1.532401E+002 -4.446391E-002 -9.584950E+000
  70.0000     -3.908698E-002 -1.090170E+001 -7.615827E+001  7.854813E+001 -7.729951E+001  1.004532E+002 -4.184860E-002 -1.115844E+001
  80.0000     -3.781955E-002 -1.245985E+001 -7.425526E+001  8.721951E+001 -7.249418E+001  7.280109E+001 -4.055104E-002 -1.275867E+001
  90.0000     -3.841643E-002 -1.401414E+001 -7.199381E+001  6.621828E+001 -7.164341E+001  6.681319E+001 -3.825743E-002 -1.434744E+001
 100.0000     -3.923202E-002 -1.557673E+001 -7.071655E+001  7.054829E+001 -6.996918E+001  7.205913E+001 -3.818617E-002 -1.595352E+001
 110.0000     -3.782074E-002 -1.713800E+001 -6.836424E+001  6.899384E+001 -6.918366E+001  7.782609E+001 -4.029794E-002 -1.754456E+001
 120.0000     -4.131304E-002 -1.871017E+001 -6.835371E+001  7.314391E+001 -6.915748E+001  6.556619E+001 -4.169699E-002 -1.915342E+001
 130.0000     -4.174154E-002 -2.025384E+001 -6.792415E+001  7.316714E+001 -6.792066E+001  6.841879E+001 -4.119457E-002 -2.073853E+001
 140.0000     -4.193924E-002 -2.181612E+001 -6.721666E+001  6.337888E+001 -6.744733E+001  6.604615E+001 -4.258563E-002 -2.232855E+001
 150.0000     -4.257649E-002 -2.340484E+001 -6.859931E+001  9.365497E+001 -7.026527E+001  6.699497E+001 -4.173932E-002 -2.393678E+001
 160.0000     -4.226021E-002 -2.496427E+001 -6.651511E+001  6.717333E+001 -6.672675E+001  6.437560E+001 -4.155357E-002 -2.553472E+001
 170.0000     -4.384917E-002 -2.653419E+001 -6.611699E+001  6.426580E+001 -6.601764E+001  6.363379E+001 -4.353097E-002 -2.714970E+001
 180.0000     -4.507671E-002 -2.809965E+001 -6.586734E+001  5.694530E+001 -6.505991E+001  6.399471E+001 -4.295528E-002 -2.876610E+001
 190.0000     -4.799309E-002 -2.966596E+001 -6.539377E+001  5.979671E+001 -6.538058E+001  6.089516E+001 -4.568100E-002 -3.037938E+001
 200.0000     -4.928575E-002 -3.124758E+001 -6.521322E+001  4.998266E+001 -6.455757E+001  5.653078E+001 -4.459468E-002 -3.197519E+001
 210.0000     -5.232898E-002 -3.281618E+001 -6.516020E+001  5.659959E+001 -6.469135E+001  5.325084E+001 -4.583040E-002 -3.356620E+001
 220.0000     -5.504003E-002 -3.438414E+001 -6.501941E+001  6.074356E+001 -6.395293E+001  5.781702E+001 -4.891284E-002 -3.517812E+001
 230.0000     -5.675133E-002 -3.595546E+001 -6.462666E+001  5.710051E+001 -6.354827E+001  5.413965E+001 -4.783772E-002 -3.679176E+001
 240.0000     -5.683079E-002 -3.753379E+001 -6.390323E+001  5.279111E+001 -6.456593E+001  5.907261E+001 -5.117434E-002 -3.840335E+001
 250.0000     -6.157360E-002 -3.912696E+001 -6.461591E+001  4.845105E+001 -6.463789E+001  5.092299E+001 -5.211711E-002 -4.002146E+001
 260.0000     -6.912370E-002 -4.072902E+001 -6.240849E+001  5.193714E+001 -6.362065E+001  4.975108E+001 -5.602507E-002 -4.162194E+001
 270.0000     -6.977966E-002 -4.229996E+001 -6.347435E+001  4.740422E+001 -6.308356E+001  4.684507E+001 -5.775372E-002 -4.322727E+001
 280.0000     -7.189527E-002 -4.387271E+001 -6.331779E+001  4.940747E+001 -6.270481E+001  4.227563E+001 -5.896742E-002 -4.484863E+001
 290.0000     -7.749987E-002 -4.547488E+001 -6.273317E+001  4.694267E+001 -6.240418E+001  4.546410E+001 -5.958810E-002 -4.646916E+001
 300.0000     -7.726590E-002 -4.706915E+001 -6.251437E+001  4.020234E+001 -6.317505E+001  3.844041E+001 -6.349859E-002 -4.809171E+001
 310.0000     -8.368408E-002 -4.866941E+001 -6.254910E+001  4.159898E+001 -6.289014E+001  4.284337E+001 -6.870991E-002 -4.972626E+001
 320.0000     -8.284692E-002 -5.028638E+001 -6.222040E+001  4.327650E+001 -6.310667E+001  3.814106E+001 -6.997171E-002 -5.135299E+001
 330.0000     -8.727250E-002 -5.190871E+001 -6.241409E+001  3.843342E+001 -6.275183E+001  4.070524E+001 -7.412477E-002 -5.298904E+001
 340.0000     -9.474594E-002 -5.351627E+001 -6.303276E+001  3.865196E+001 -6.318673E+001  3.886858E+001 -7.664492E-002 -5.463783E+001
 350.0000     -9.640130E-002 -5.513541E+001 -6.371349E+001  3.485921E+001 -6.414465E+001  3.670868E+001 -7.959662E-002 -5.630429E+001
 360.0000     -1.010490E-001 -5.677091E+001 -6.290301E+001  3.757350E+001 -6.290512E+001  3.567001E+001 -8.048669E-002 -5.796057E+001
 370.0000     -1.020075E-001 -5.838877E+001 -6.368039E+001  3.611754E+001 -6.317849E+001  3.231248E+001 -8.668520E-002 -5.961983E+001
 380.0000     -1.065925E-001 -6.005171E+001 -6.377837E+001  3.463655E+001 -6.375811E+001  3.487209E+001 -8.888721E-002 -6.129289E+001
 390.0000     -1.119787E-001 -6.167524E+001 -6.437452E+001  3.703759E+001 -6.408324E+001  3.414304E+001 -9.354509E-002 -6.294396E+001
 400.0000     -1.175619E-001 -6.332747E+001 -6.364855E+001  3.332872E+001 -6.484738E+001  2.647797E+001 -9.766503E-002 -6.461839E+001
 410.0000     -1.244646E-001 -6.497180E+001 -6.572431E+001  3.019369E+001 -6.460962E+001  3.253345E+001 -1.006487E-001 -6.630398E+001
 420.0000     -1.287889E-001 -6.665361E+001 -6.602542E+001  3.234544E+001 -6.573516E+001  2.929891E+001 -1.068659E-001 -6.799975E+001
 430.0000     -1.352216E-001 -6.833673E+001 -6.741389E+001  3.265515E+001 -6.739580E+001  2.880907E+001 -1.097178E-001 -6.967801E+001
 440.0000     -1.382553E-001 -6.999303E+001 -6.821545E+001  3.900929E+001 -6.888533E+001  3.710486E+001 -1.169064E-001 -7.139353E+001
 450.0000     -1.466080E-001 -7.169908E+001 -7.132207E+001  3.757716E+001 -7.255479E+001  3.877170E+001 -1.210907E-001 -7.307227E+001
 460.0000     -1.501652E-001 -7.340086E+001 -7.556531E+001  4.821208E+001 -7.191801E+001  5.371508E+001 -1.275950E-001 -7.477393E+001
 470.0000     -1.546225E-001 -7.510327E+001 -7.943034E+001  9.189236E+001 -7.592384E+001  7.835150E+001 -1.317540E-001 -7.649995E+001
 480.0000     -1.629688E-001 -7.682530E+001 -7.420528E+001  1.197142E+002 -7.350793E+001  1.267712E+002 -1.364070E-001 -7.822237E+001
 490.0000     -1.695041E-001 -7.855455E+001 -7.041662E+001  1.530914E+002 -7.031568E+001  1.573669E+002 -1.414426E-001 -7.996395E+001
 500.0000     -1.772216E-001 -8.028471E+001 -6.627614E+001  1.632487E+002 -6.696123E+001  1.591688E+002 -1.481709E-001 -8.171860E+001
 510.0000     -1.852034E-001 -8.204433E+001 -6.331417E+001  1.662300E+002 -6.330553E+001  1.661672E+002 -1.561190E-001 -8.346825E+001
 520.0000     -1.887755E-001 -8.381815E+001 -6.063539E+001  1.666474E+002 -6.043236E+001  1.645524E+002 -1.608836E-001 -8.522800E+001
 530.0000     -1.977299E-001 -8.559619E+001 -5.867487E+001  1.675966E+002 -5.833948E+001  1.668850E+002 -1.667008E-001 -8.700573E+001
 540.0000     -2.050692E-001 -8.740430E+001 -5.632772E+001  1.674310E+002 -5.653944E+001  1.660056E+002 -1.713445E-001 -8.879383E+001
 550.0000     -2.139409E-001 -8.920329E+001 -5.429758E+001  1.665080E+002 -5.457127E+001  1.675638E+002 -1.785119E-001 -9.059614E+001
 560.0000     -2.192713E-001 -9.103561E+001 -5.269230E+001  1.660277E+002 -5.290415E+001  1.662913E+002 -1.890753E-001 -9.240438E+001
 570.0000     -2.312099E-001 -9.283743E+001 -5.119332E+001  1.651938E+002 -5.134507E+001  1.649160E+002 -1.958488E-001 -9.424448E+001
 580.0000     -2.362894E-001 -9.471597E+001 -4.967845E+001  1.631451E+002 -4.965080E+001  1.633437E+002 -2.024181E-001 -9.607673E+001
 590.0000     -2.437755E-001 -9.660582E+001 -4.819952E+001  1.617941E+002 -4.814292E+001  1.621662E+002 -2.119583E-001 -9.790140E+001
 600.0000     -2.565666E-001 -9.849270E+001 -4.665983E+001  1.612963E+002 -4.674292E+001  1.607612E+002 -2.198257E-001 -9.976901E+001
 610.0000     -2.614776E-001 -1.003947E+002 -4.535341E+001  1.589044E+002 -4.541616E+001  1.588144E+002 -2.279120E-001 -1.016696E+002
 620.0000     -2.746676E-001 -1.023429E+002 -4.412652E+001  1.573113E+002 -4.414283E+001  1.574468E+002 -2.364787E-001 -1.035865E+002
 630.0000     -2.884636E-001 -1.043278E+002 -4.281695E+001  1.554757E+002 -4.282849E+001  1.553854E+002 -2.492520E-001 -1.055224E+002
 640.0000     -3.002094E-001 -1.063322E+002 -4.157651E+001  1.537825E+002 -4.151266E+001  1.537596E+002 -2.607872E-001 -1.074620E+002
 650.0000     -3.100797E-001 -1.083587E+002 -4.034641E+001  1.516276E+002 -4.033990E+001  1.515989E+002 -2.714719E-001 -1.094422E+002
 660.0000     -3.204608E-001 -1.103877E+002 -3.911696E+001  1.497937E+002 -3.909728E+001  1.498352E+002 -2.839412E-001 -1.114292E+002
 670.0000     -3.340197E-001 -1.124851E+002 -3.795150E+001  1.480737E+002 -3.792260E+001  1.477957E+002 -2.917401E-001 -1.134713E+002
 680.0000     -3.500708E-001 -1.145841E+002 -3.678095E+001  1.460033E+002 -3.675022E+001  1.458985E+002 -3.006372E-001 -1.155162E+002
 690.0000     -3.603313E-001 -1.167297E+002 -3.563191E+001  1.438467E+002 -3.562240E+001  1.437826E+002 -3.157752E-001 -1.175949E+002
 700.0000     -3.765304E-001 -1.189408E+002 -3.447911E+001  1.417982E+002 -3.448418E+001  1.417213E+002 -3.283559E-001 -1.197153E+002
 710.0000     -3.900741E-001 -1.211508E+002 -3.338379E+001  1.395741E+002 -3.336277E+001  1.395911E+002 -3.424679E-001 -1.218563E+002
 720.0000     -4.027324E-001 -1.234202E+002 -3.226192E+001  1.374776E+002 -3.226778E+001  1.372572E+002 -3.548766E-001 -1.240622E+002
 730.0000     -4.234343E-001 -1.257647E+002 -3.116571E+001  1.351881E+002 -3.116440E+001  1.351259E+002 -3.663239E-001 -1.262762E+002
 740.0000     -4.377982E-001 -1.281500E+002 -3.008277E+001  1.328841E+002 -3.006701E+001  1.327665E+002 -3.822494E-001 -1.285317E+002
 750.0000     -4.567043E-001 -1.305680E+002 -2.900256E+001  1.304288E+002 -2.900053E+001  1.304082E+002 -4.009236E-001 -1.308759E+002
 760.0000     -4.794265E-001 -1.330519E+002 -2.793369E+001  1.280555E+002 -2.791681E+001  1.279132E+002 -4.211277E-001 -1.332580E+002
 770.0000     -4.930135E-001 -1.356095E+002 -2.685912E+001  1.255521E+002 -2.683657E+001  1.255083E+002 -4.377790E-001 -1.356711E+002
 780.0000     -5.203091E-001 -1.382127E+002 -2.579168E+001  1.229668E+002 -2.579144E+001  1.229411E+002 -4.605363E-001 -1.381443E+002
 790.0000     -5.457469E-001 -1.409274E+002 -2.473401E+001  1.203028E+002 -2.473048E+001  1.202754E+002 -4.843033E-001 -1.407104E+002
 800.0000     -5.752672E-001 -1.437076E+002 -2.368539E+001  1.175782E+002 -2.368596E+001  1.175162E+002 -5.068787E-001 -1.433241E+002
 810.0000     -6.048325E-001 -1.465923E+002 -2.262922E+001  1.147100E+002 -2.262651E+001  1.146674E+002 -5.366844E-001 -1.460369E+002
 820.0000     -6.380937E-001 -1.496010E+002 -2.158111E+001  1.118027E+002 -2.158203E+001  1.117455E+002 -5.701537E-001 -1.488353E+002
 830.0000     -6.806011E-001 -1.526676E+002 -2.054066E+001  1.087628E+002 -2.053226E+001  1.087048E+002 -6.066557E-001 -1.517272E+002
 840.0000     -7.250366E-001 -1.558717E+002 -1.950023E+001  1.056045E+002 -1.949623E+001  1.055537E+002 -6.501187E-001 -1.547288E+002
 850.0000     -7.774119E-001 -1.592210E+002 -1.845691E+001  1.023000E+002 -1.845522E+001  1.022412E+002 -6.963798E-001 -1.578629E+002
 860.0000     -8.334173E-001 -1.627520E+002 -1.742089E+001  9.880968E+001 -1.741515E+001  9.880486E+001 -7.526859E-001 -1.611215E+002
 870.0000     -9.044635E-001 -1.664399E+002 -1.638805E+001  9.519537E+001 -1.638532E+001  9.518504E+001 -8.173869E-001 -1.644814E+002
 880.0000     -9.808749E-001 -1.702806E+002 -1.535261E+001  9.139261E+001 -1.534904E+001  9.137760E+001 -8.961858E-001 -1.680285E+002
 890.0000     -1.077225E+000 -1.743129E+002 -1.432798E+001  8.743179E+001 -1.432801E+001  8.741490E+001 -9.853671E-001 -1.717334E+002
 900.0000     -1.187860E+000 -1.786109E+002 -1.330562E+001  8.321429E+001 -1.330684E+001  8.317422E+001 -1.088882E+000 -1.756067E+002
 910.0000     -1.314554E+000  1.769081E+002 -1.228717E+001  7.880155E+001 -1.228977E+001  7.877776E+001 -1.211810E+000 -1.796930E+002
 920.0000     -1.480176E+000  1.721320E+002 -1.129047E+001  7.413327E+001 -1.129233E+001  7.413028E+001 -1.360683E+000  1.760323E+002
 930.0000     -1.673098E+000  1.670715E+002 -1.030933E+001  6.918945E+001 -1.030755E+001  6.914296E+001 -1.544832E+000  1.715021E+002
 940.0000     -1.902921E+000  1.617368E+002 -9.342580E+000  6.391382E+001 -9.343061E+000  6.389093E+001 -1.766914E+000  1.667153E+002
 950.0000     -2.190482E+000  1.560461E+002 -8.410850E+000  5.834606E+001 -8.409129E+000  5.830872E+001 -2.034321E+000  1.616822E+002
 960.0000     -2.530124E+000  1.500880E+002 -7.505042E+000  5.250632E+001 -7.504004E+000  5.250340E+001 -2.358862E+000  1.564417E+002
 970.0000     -2.945223E+000  1.438188E+002 -6.644284E+000  4.636794E+001 -6.646660E+000  4.635239E+001 -2.755099E+000  1.509717E+002
 980.0000     -3.441781E+000  1.372329E+002 -5.840060E+000  3.996188E+001 -5.840110E+000  3.995169E+001 -3.230177E+000  1.452885E+002
 990.0000     -4.034522E+000  1.303471E+002 -5.090585E+000  3.331704E+001 -5.089371E+000  3.327652E+001 -3.799340E+000  1.395028E+002
1000.0000     -4.741966E+000  1.232527E+002 -4.411389E+000  2.646071E+001 -4.411981E+000  2.642851E+001 -4.472637E+000  1.336225E+002
1010.0000     -5.575017E+000  1.159669E+002 -3.798322E+000  1.946388E+001 -3.803988E+000  1.945592E+001 -5.259573E+000  1.277883E+002
1020.0000     -6.540639E+000  1.085686E+002 -3.263139E+000  1.241297E+001 -3.267824E+000  1.241719E+001 -6.177017E+000  1.220868E+002
1030.0000     -7.657022E+000  1.011215E+002 -2.805516E+000  5.415741E+000 -2.803583E+000  5.384732E+000 -7.228542E+000  1.166781E+002
1040.0000     -8.941422E+000  9.360516E+001 -2.419760E+000 -1.532735E+000 -2.415884E+000 -1.533121E+000 -8.422137E+000  1.117081E+002
1050.0000     -1.039821E+001  8.615636E+001 -2.094710E+000 -8.306818E+000 -2.098715E+000 -8.314609E+000 -9.753881E+000  1.073070E+002
1060.0000     -1.205760E+001  7.867273E+001 -1.836000E+000 -1.486610E+001 -1.838556E+000 -1.488388E+001 -1.123704E+001  1.037678E+002
1070.0000     -1.395225E+001  7.108894E+001 -1.631185E+000 -2.119035E+001 -1.629514E+000 -2.120507E+001 -1.287294E+001  1.012485E+002
1080.0000     -1.612796E+001  6.324335E+001 -1.465124E+000 -2.724333E+001 -1.465813E+000 -2.726830E+001 -1.463913E+001  1.000161E+002
1090.0000     -1.869895E+001  5.460248E+001 -1.333210E+000 -3.301460E+001 -1.335519E+000 -3.304361E+001 -1.655488E+001  1.008868E+002
1100.0000     -2.181769E+001  4.454224E+001 -1.232523E+000 -3.851868E+001 -1.233555E+000 -3.854636E+001 -1.852926E+001  1.042093E+002
1110.0000     -2.573414E+001  3.033435E+001 -1.153790E+000 -4.377687E+001 -1.156025E+000 -4.377397E+001 -2.045031E+001  1.108780E+002
1120.0000     -3.073834E+001  3.487038E+000 -1.091157E+000 -4.873851E+001 -1.093550E+000 -4.876528E+001 -2.203021E+001  1.208358E+002
1130.0000     -3.353337E+001 -5.204784E+001 -1.041316E+000 -5.350295E+001 -1.043467E+000 -5.351501E+001 -2.303829E+001  1.330627E+002
1140.0000     -3.048261E+001 -9.579791E+001 -1.003430E+000 -5.805378E+001 -1.002970E+000 -5.805494E+001 -2.326645E+001  1.452926E+002
1150.0000     -2.739401E+001 -1.153788E+002 -9.671049E-001 -6.237562E+001 -9.690880E-001 -6.240641E+001 -2.295617E+001  1.542661E+002
1160.0000     -2.530212E+001 -1.258677E+002 -9.394941E-001 -6.654449E+001 -9.410901E-001 -6.655327E+001 -2.249569E+001  1.605781E+002
1170.0000     -2.393599E+001 -1.335135E+002 -9.148017E-001 -7.053927E+001 -9.158887E-001 -7.056287E+001 -2.201641E+001  1.644325E+002
1180.0000     -2.299775E+001 -1.394548E+002 -8.923172E-001 -7.439748E+001 -8.930525E-001 -7.441409E+001 -2.164240E+001  1.662085E+002
1190.0000     -2.235796E+001 -1.445485E+002 -8.705755E-001 -7.811201E+001 -8.713319E-001 -7.811803E+001 -2.139038E+001  1.670063E+002
1200.0000     -2.199461E+001 -1.486853E+002 -8.494101E-001 -8.167661E+001 -8.508129E-001 -8.170868E+001 -2.125802E+001  1.666448E+002
1210.0000     -2.179200E+001 -1.526139E+002 -8.286787E-001 -8.515478E+001 -8.310218E-001 -8.516434E+001 -2.123766E+001  1.657719E+002
1220.0000     -2.174643E+001 -1.562452E+002 -8.116898E-001 -8.852138E+001 -8.125326E-001 -8.853909E+001 -2.131616E+001  1.648717E+002
1230.0000     -2.185753E+001 -1.595053E+002 -7.913571E-001 -9.179081E+001 -7.917953E-001 -9.179830E+001 -2.150332E+001  1.634660E+002
1240.0000     -2.211090E+001 -1.626422E+002 -7.736498E-001 -9.496233E+001 -7.717302E-001 -9.496722E+001 -2.182930E+001  1.620921E+002
1250.0000     -2.247136E+001 -1.654345E+002 -7.543560E-001 -9.806167E+001 -7.556692E-001 -9.806888E+001 -2.220306E+001  1.602688E+002
1260.0000     -2.291196E+001 -1.677276E+002 -7.389618E-001 -1.010613E+002 -7.377043E-001 -1.010869E+002 -2.278387E+001  1.586371E+002
1270.0000     -2.351861E+001 -1.695573E+002 -7.194691E-001 -1.040013E+002 -7.203333E-001 -1.040211E+002 -2.338396E+001  1.570504E+002
1280.0000     -2.420900E+001 -1.714947E+002 -7.049309E-001 -1.068885E+002 -7.052321E-001 -1.068866E+002 -2.419301E+001  1.556038E+002
1290.0000     -2.506236E+001 -1.726123E+002 -6.868811E-001 -1.096644E+002 -6.895121E-001 -1.097031E+002 -2.517823E+001  1.541577E+002
1300.0000     -2.603725E+001 -1.731778E+002 -6.739776E-001 -1.124232E+002 -6.733144E-001 -1.124253E+002 -2.631312E+001  1.527943E+002
1310.0000     -2.725990E+001 -1.729264E+002 -6.578146E-001 -1.150982E+002 -6.593027E-001 -1.151061E+002 -2.765128E+001  1.517971E+002
1320.0000     -2.863779E+001 -1.706377E+002 -6.463435E-001 -1.177238E+002 -6.465345E-001 -1.177426E+002 -2.938259E+001  1.508280E+002
1330.0000     -3.027006E+001 -1.670387E+002 -6.329647E-001 -1.202852E+002 -6.320434E-001 -1.202919E+002 -3.151167E+001  1.513580E+002
1340.0000     -3.217171E+001 -1.589040E+002 -6.214411E-001 -1.227985E+002 -6.203656E-001 -1.228096E+002 -3.450559E+001  1.539074E+002
1350.0000     -3.415309E+001 -1.449790E+002 -6.104031E-001 -1.252632E+002 -6.097976E-001 -1.252749E+002 -3.866145E+001  1.616339E+002
1360.0000     -3.513578E+001 -1.243535E+002 -6.020719E-001 -1.276855E+002 -5.989155E-001 -1.276859E+002 -4.545004E+001 -1.617059E+002
1370.0000     -3.481548E+001 -1.009221E+002 -5.920399E-001 -1.300294E+002 -5.910410E-001 -1.300543E+002 -4.241494E+001 -8.443703E+001
1380.0000     -3.296157E+001 -8.271519E+001 -5.851831E-001 -1.323651E+002 -5.825835E-001 -1.323768E+002 -3.668624E+001 -6.655547E+001
1390.0000     -3.091590E+001 -7.252442E+001 -5.756233E-001 -1.346301E+002 -5.762262E-001 -1.346457E+002 -3.279577E+001 -6.290473E+001
1400.0000     -2.907298E+001 -6.686583E+001 -5.692946E-001 -1.368545E+002 -5.697012E-001 -1.368708E+002 -3.022390E+001 -6.224645E+001
1410.0000     -2.747879E+001 -6.372181E+001 -5.636899E-001 -1.390202E+002 -5.619084E-001 -1.390592E+002 -2.815323E+001 -6.233139E+001
1420.0000     -2.611100E+001 -6.176650E+001 -5.598877E-001 -1.411746E+002 -5.575892E-001 -1.411959E+002 -2.663060E+001 -6.290079E+001
1430.0000     -2.489769E+001 -6.128310E+001 -5.547422E-001 -1.432767E+002 -5.552277E-001 -1.432910E+002 -2.527550E+001 -6.435375E+001
1440.0000     -2.384466E+001 -6.141679E+001 -5.494720E-001 -1.453360E+002 -5.509653E-001 -1.453591E+002 -2.412684E+001 -6.571306E+001
1450.0000     -2.291704E+001 -6.158976E+001 -5.480160E-001 -1.473677E+002 -5.458618E-001 -1.473855E+002 -2.315037E+001 -6.716204E+001
